Freq.	V(n028)
Step Information: Run=1  (Run: 1/20)
1.00000000000000e+003	(-284.032995702442dB,-281.3954308059041°)
1.02329299228075e+003	(-281.827438937605dB,-281.6550647456935°)
1.04712854805090e+003	(-279.621619130558dB,-281.9209617759119°)
1.07151930523761e+003	(-277.415523785834dB,-282.1932688810532°)
1.09647819614319e+003	(-275.209139808527dB,-282.4721368856395°)
1.12201845430196e+003	(-273.00245347557dB,-282.7577205536467°)
1.14815362149688e+003	(-270.795450404838dB,-283.0501787187842°)
1.17489755493953e+003	(-268.588115522902dB,-283.3496743881203°)
1.20226443461741e+003	(-266.380433031442dB,-283.6563748802575°)
1.23026877081238e+003	(-264.172386371221dB,-283.9704519515476°)
1.25892541179417e+003	(-261.963958185025dB,-284.2920819332551°)
1.28824955169313e+003	(-259.755130278172dB,-284.6214458740495°)
1.31825673855641e+003	(-257.545883577251dB,-284.9587296852215°)
1.34896288259165e+003	(-255.33619808664dB,-285.3041243044036°)
1.38038426460288e+003	(-253.126052842529dB,-285.6578258465937°)
1.41253754462275e+003	(-250.915425865225dB,-286.0200357790838°)
1.44543977074593e+003	(-248.704294108214dB,-286.3909610952158°)
1.47910838816821e+003	(-246.492633404965dB,-286.7708145042925°)
1.51356124843621e+003	(-244.280418412656dB,-287.159814621509°)
1.54881661891248e+003	(-242.067622553511dB,-287.5581861683627°)
1.58489319246111e+003	(-239.854217952026dB,-287.9661601915682°)
1.62181009735893e+003	(-237.640175369912dB,-288.383974284094°)
1.65958690743756e+003	(-235.425464136614dB,-288.811872815571°)
1.69824365246174e+003	(-233.210052076558dB,-289.2501071862895°)
1.73780082874937e+003	(-230.993905432546dB,-289.6989360787785°)
1.77827941003892e+003	(-228.776988784408dB,-290.1586257361143°)
1.81970085860998e+003	(-226.55926496388dB,-290.6294502485929°)
1.86208713666287e+003	(-224.340694963944dB,-291.1116918513111°)
1.90546071796325e+003	(-222.121237843831dB,-291.6056412514961°)
1.94984459975804e+003	(-219.900850628325dB,-292.1115979581091°)
1.99526231496888e+003	(-217.679488201219dB,-292.62987064636343°)
2.04173794466953e+003	(-215.457103193079dB,-293.160777526222°)
2.08929613085404e+003	(-213.233645862008dB,-293.7046467499012°)
2.13796208950223e+003	(-211.009063968265dB,-294.2618168239809°)
2.18776162394955e+003	(-208.783302640633dB,-294.8326370676795°)
2.23872113856834e+003	(-206.556304235498dB,-295.4174680823884°)
2.29086765276777e+003	(-204.328008187306dB,-296.0166822577954°)
2.34422881531992e+003	(-202.098350850217dB,-296.6306643086011°)
2.39883291901949e+003	(-199.867265329585dB,-297.25981184696707°)
2.45470891568503e+003	(-197.634681304111dB,-297.9045359878877°)
2.51188643150958e+003	(-195.400524835788dB,-298.5652620003484°)
2.57039578276886e+003	(-193.164718168772dB,-299.2424299978913°)
2.63026799189538e+003	(-190.927179515319dB,-299.9364956769183°)
2.69153480392691e+003	(-188.687822827706dB,-300.64793110809967°)
2.75422870333816e+003	(-186.446557555949dB,-301.3772255823592°)
2.81838293126445e+003	(-184.203288389dB,-302.1248865132441°)
2.88403150312660e+003	(-181.957914979263dB,-302.8914404129225°)
2.95120922666638e+003	(-179.710331648417dB,-303.6774339327038°)
3.01995172040201e+003	(-177.460427073168dB,-304.4834349849678°)
3.09029543251359e+003	(-175.208083949452dB,-305.310033949232°)
3.16227766016838e+003	(-172.953178633062dB,-306.1578449702764°)
3.23593656929628e+003	(-170.695580754849dB,-307.02750736315977°)
3.31131121482591e+003	(-168.435152808114dB,-307.919687123168°)
3.38844156139202e+003	(-166.171749706464dB,-308.8350785626287°)
3.46736850452531e+003	(-163.905218307849dB,-309.7744060834315°)
3.54813389233575e+003	(-161.635396903826dB,-310.7384260949885°)
3.63078054770101e+003	(-159.362114669275dB,-311.7279290985466°)
3.71535229097172e+003	(-157.085191069292dB,-312.7437419512666°)
3.80189396320561e+003	(-154.804435219627dB,-313.7867303302557°)
3.89045144994280e+003	(-152.519645195325dB,-314.8578014180961°)
3.98107170553497e+003	(-150.230607282838dB,-315.95790683750863°)
4.07380277804112e+003	(-147.937095170433dB,-317.0880458515369°)
4.16869383470335e+003	(-145.638869069024dB,-318.2492688794839°)
4.26579518801592e+003	(-143.335674757944dB,-319.4426813417074°)
4.36515832240165e+003	(-141.027242546046dB,-320.6694478924965°)
4.46683592150962e+003	(-138.713286139766dB,-321.9307970758269°)
4.57088189614874e+003	(-136.393501407488dB,-323.2280264567651°)
4.67735141287197e+003	(-134.067565027984dB,-324.5625082963345°)
4.78630092322637e+003	(-131.735133010123dB,-325.9356958312669°)
4.89778819368445e+003	(-129.395839067688dB,-327.3491302399569°)
5.01187233627271e+003	(-127.049292832168dB,-328.8044483866534°)
5.12861383991364e+003	(-124.695077882943dB,-330.3033914563308°)
5.24807460249772e+003	(-122.332749571669dB,-331.8478145916331°)
5.37031796370252e+003	(-119.961832613764dB,-333.439697691086°)
5.49540873857624e+003	(-117.581818415584dB,-335.081157528298°)
5.62341325190348e+003	(-115.192162101501dB,-336.7744613958103°)
5.75439937337156e+003	(-112.792279197303dB,-338.5220425117626°)
5.88843655355588e+003	(-110.381541921387dB,-340.3265174613393°)
6.02559586074357e+003	(-107.959275023641dB,-342.1907060167738°)
6.16595001861481e+003	(-105.524751104413dB,-344.1176537232234°)
6.30957344480192e+003	(-103.077185329628dB,-346.1106577404838°)
6.45654229034654e+003	(-100.615729445302dB,-348.1732965071292°)
6.60693448007595e+003	(-98.1394649728023dB,-350.30946394245194°)
6.76082975391980e+003	(-95.6473954434921dB,-352.5234090347817°)
6.91830970918935e+003	(-93.1384375006762dB,-354.8197818773238°)
7.07945784384136e+003	(-90.6114106591085dB,-357.20368745830245°)
7.24435960074989e+003	(-88.0650254641312dB,-359.6807488290459°)
7.41310241300916e+003	(-85.4978697325956dB,-2.2571816955627°)
7.58577575029182e+003	(-82.9083924777451dB,-4.93988302037944°)
7.76247116628690e+003	(-80.2948850201275dB,-7.73653692993873°)
7.94328234724280e+003	(-77.6554586527466dB,-10.6557421824172°)
8.12830516164097e+003	(-74.9880180513769dB,-13.7071667281553°)
8.31763771102669e+003	(-72.2902293844775dB,-16.9017366437246°)
8.51138038202374e+003	(-69.5594817564108dB,-20.2518691466427°)
8.70963589956079e+003	(-66.7928401712132dB,-23.771762793319°)
8.91250938133744e+003	(-63.98698758586dB,-27.4777628325923°)
9.12010839355908e+003	(-61.1381527374262dB,-31.3888267751725°)
9.33254300796989e+003	(-58.2420191473198dB,-35.5271257997231°)
9.54992586021434e+003	(-55.2936088147554dB,-39.9188337415055°)
9.77237220955809e+003	(-52.2871312528354dB,-44.5951807182747°)
9.99999999999998e+003	(-49.215784114079dB,-49.5938894695177°)
1.02329299228075e+004	(-46.0714846931239dB,-54.9611813978287°)
1.04712854805090e+004	(-42.8445003723189dB,-60.7546599878564°)
1.07151930523760e+004	(-39.5229276414024dB,-67.0476006604624°)
1.09647819614318e+004	(-36.0919387588163dB,-73.9356041914116°)
1.12201845430196e+004	(-32.532665131362dB,-81.5474485847155°)
1.14815362149688e+004	(-28.8205109136272dB,-90.0638949187081°)
1.17489755493953e+004	(-24.9226110392491dB,-99.7527120957881°)
1.20226443461741e+004	(-20.7942669020809dB,-111.039575419688°)
1.23026877081238e+004	(-16.3757334760273dB,-124.665150464915°)
1.25892541179416e+004	(-11.6008024020072dB,-142.061271219185°)
1.28824955169313e+004	(-6.4880408474967dB,-166.222980054992°)
1.31825673855640e+004	(-1.64170922734415dB,-202.366861488435°)
1.34896288259165e+004	(0.980853649540581dB,-249.12972087079902°)
1.38038426460288e+004	(1.04872601567545dB,-289.4052015493105°)
1.41253754462275e+004	(0.51515168742789dB,-318.8365430810829°)
1.44543977074592e+004	(0.117220518360169dB,-342.3299272485253°)
1.47910838816820e+004	(-0.118641875110662dB,-2.81585454321946°)
1.51356124843620e+004	(-0.260933531872839dB,-21.4773656034504°)
1.54881661891248e+004	(-0.356546925932942dB,-38.7904634060865°)
1.58489319246111e+004	(-0.427389744567773dB,-54.9864226044917°)
1.62181009735893e+004	(-0.481860665034898dB,-70.2193658490587°)
1.65958690743756e+004	(-0.523338062856864dB,-84.6153109543635°)
1.69824365246174e+004	(-0.554153302003411dB,-98.2810591735542°)
1.73780082874937e+004	(-0.576726034106308dB,-111.30421636005°)
1.77827941003892e+004	(-0.593491157482463dB,-123.754039392959°)
1.81970085860998e+004	(-0.606556973268101dB,-135.684353215613°)
1.86208713666286e+004	(-0.617477345430964dB,-147.137435341863°)
1.90546071796324e+004	(-0.627213530740916dB,-158.14770274327°)
1.94984459975804e+004	(-0.636234748978862dB,-168.744559253692°)
1.99526231496887e+004	(-0.644679185913091dB,-178.954251768905°)
2.04173794466952e+004	(-0.652513195257809dB,-188.800880885103°)
2.08929613085403e+004	(-0.659654129635506dB,-198.306827407333°)
2.13796208950222e+004	(-0.666046198254683dB,-207.492852288817°)
2.18776162394954e+004	(-0.671693989901775dB,-216.378066489714°)
2.23872113856833e+004	(-0.676665235878284dB,-224.979893251932°)
2.29086765276777e+004	(-0.681075517910338dB,-233.314082196423°)
2.34422881531991e+004	(-0.685065602635087dB,-241.39479072089802°)
2.39883291901948e+004	(-0.688778896708103dB,-249.234722857669°)
2.45470891568502e+004	(-0.692343366660871dB,-256.845304727128°)
2.51188643150957e+004	(-0.695859726522911dB,-264.2368740415697°)
2.57039578276885e+004	(-0.699395934484605dB,-271.4188646047018°)
2.63026799189537e+004	(-0.702986999072335dB,-278.39997236517183°)
2.69153480392691e+004	(-0.70663863327448dB,-285.1882954147618°)
2.75422870333816e+004	(-0.710333233179338dB,-291.7914453036629°)
2.81838293126444e+004	(-0.71403684093692dB,-298.21663072553713°)
2.88403150312660e+004	(-0.717706054559657dB,-304.4707169748491°)
2.95120922666637e+004	(-0.721294178191315dB,-310.5602657489196°)
3.01995172040200e+004	(-0.724756210268401dB,-316.4915601514976°)
3.09029543251358e+004	(-0.728052514180166dB,-322.2706194268818°)
3.16227766016837e+004	(-0.731151196485401dB,-327.9032072862911°)
3.23593656929627e+004	(-0.734029334646618dB,-333.3948368649573°)
3.31131121482590e+004	(-0.736673259616113dB,-338.7507745284226°)
3.38844156139201e+004	(-0.739078120075624dB,-343.9760440033552°)
3.46736850452530e+004	(-0.741246949363741dB,-349.0754316962608°)
3.54813389233574e+004	(-0.743189430917912dB,-354.0534935865429°)
3.63078054770100e+004	(-0.744920525239406dB,-358.9145637441354°)
3.71535229097171e+004	(-0.746459084403019dB,-3.66276429578301°)
3.80189396320560e+004	(-0.747826545756254dB,-8.30201653658824°)
3.89045144994279e+004	(-0.749045765063386dB,-12.8360528269896°)
3.98107170553496e+004	(-0.750140023413726dB,-17.2684289073203°)
4.07380277804111e+004	(-0.75113222178783dB,-21.6025362926434°)
4.16869383470334e+004	(-0.752044261859039dB,-25.841614456031°)
4.26579518801591e+004	(-0.752896600933385dB,-29.9887625663975°)
4.36515832240164e+004	(-0.753707962186176dB,-34.0469506050641°)
4.46683592150961e+004	(-0.754495177834051dB,-38.0190297416154°)
4.57088189614873e+004	(-0.755273141433914dB,-41.907741896818°)
4.67735141287196e+004	(-0.756054846259116dB,-45.7157284648854°)
4.78630092322636e+004	(-0.756851488124954dB,-49.4455381971881°)
4.89778819368444e+004	(-0.757672613637496dB,-53.0996342780963°)
5.01187233627270e+004	(-0.758526297332298dB,-56.6804006392573°)
5.12861383991362e+004	(-0.759419334223208dB,-60.1901475723167°)
5.24807460249770e+004	(-0.760357436866709dB,-63.631116705076°)
5.37031796370250e+004	(-0.761345428684274dB,-67.005485410852°)
5.49540873857622e+004	(-0.76238742740142dB,-70.3153707174259°)
5.62341325190346e+004	(-0.763487014532224dB,-73.5628327815102°)
5.75439937337154e+004	(-0.764647388348073dB,-76.7498779887103°)
5.88843655355586e+004	(-0.76587149902245dB,-79.8784617335417°)
6.02559586074355e+004	(-0.767162165764459dB,-82.9504909292209°)
6.16595001861479e+004	(-0.768522176401324dB,-85.9678262890651°)
6.30957344480190e+004	(-0.769954370472497dB,-88.9322844179376°)
6.45654229034652e+004	(-0.771461707178038dB,-91.8456397434813°)
6.60693448007593e+004	(-0.773047319814864dB,-94.7096263149609°)
6.76082975391979e+004	(-0.774714558402483dB,-97.5259394909877°)
6.91830970918933e+004	(-0.776467022134022dB,-100.296237533677°)
7.07945784384134e+004	(-0.77830858338497dB,-103.022143124394°)
7.24435960074987e+004	(-0.780243404728095dB,-105.705244811707°)
7.41310241300914e+004	(-0.782275950427138dB,-108.347098401384°)
7.58577575029180e+004	(-0.784410993649819dB,-110.949228294833°)
7.76247116628688e+004	(-0.786653620514949dB,-113.513128781843°)
7.94328234724277e+004	(-0.789009231925341dB,-116.040265291224°)
8.12830516164095e+004	(-0.791483544020537dB,-118.53207560313°)
8.31763771102667e+004	(-0.794082587913636dB,-120.989971024429°)
8.51138038202372e+004	(-0.796812709279338dB,-123.415337529751°)
8.70963589956076e+004	(-0.799680568240965dB,-125.809536868859°)
8.91250938133741e+004	(-0.802693139901791dB,-128.173907641503°)
9.12010839355905e+004	(-0.80585771578373dB,-130.509766340651°)
9.33254300796986e+004	(-0.809181906381014dB,-132.818408364434°)
9.54992586021431e+004	(-0.812673644961408dB,-135.101108997705°)
9.77237220955805e+004	(-0.816341192683103dB,-137.359124363388°)
9.99999999999995e+004	(-0.820193145088145dB,-139.59369234432°)
1.02329299228075e+005	(-0.824238440000089dB,-141.806033476198°)
1.04712854805089e+005	(-0.828486366759992dB,-143.997351811727°)
1.07151930523760e+005	(-0.832946576845174dB,-146.168835757204°)
1.09647819614318e+005	(-0.837629095749942dB,-148.321658881565°)
1.12201845430196e+005	(-0.842544336124591dB,-150.456980698634°)
1.14815362149688e+005	(-0.847703112092303dB,-152.575947423485°)
1.17489755493952e+005	(-0.853116654668473dB,-154.679692703221°)
1.20226443461741e+005	(-0.858796628227904dB,-156.76933832295°)
1.23026877081237e+005	(-0.864755147941361dB,-158.845994887732°)
1.25892541179416e+005	(-0.871004798123077dB,-160.910762480853°)
1.28824955169313e+005	(-0.87755865139756dB,-162.964731299447°)
1.31825673855640e+005	(-0.884430288657759dB,-165.008982267601°)
1.34896288259165e+005	(-0.891633819707457dB,-167.044587628065°)
1.38038426460288e+005	(-0.899183904557849dB,-169.072611512712°)
1.41253754462275e+005	(-0.907095775299174dB,-171.094110492412°)
1.44543977074592e+005	(-0.915385258494267dB,-173.110134107036°)
1.47910838816820e+005	(-0.92406879802756dB,-175.121725375648°)
1.51356124843620e+005	(-0.933163478355985dB,-177.12992128774°)
1.54881661891247e+005	(-0.942687048102003dB,-179.135753275626°)
1.58489319246110e+005	(-0.952657943916166dB,-181.140247668512°)
1.62181009735892e+005	(-0.963095314561248dB,-183.144426128535°)
1.65958690743755e+005	(-0.974019045138146dB,-185.149306069041°)
1.69824365246173e+005	(-0.98544978139459dB,-187.155901055454°)
1.73780082874937e+005	(-0.997408954037397dB,-189.165221188985°)
1.77827941003891e+005	(-1.00991880297515dB,-191.178273473346°)
1.81970085860997e+005	(-1.02300240140837dB,-193.196062164724°)
1.86208713666286e+005	(-1.03668367967673dB,-195.219589105268°)
1.90546071796324e+005	(-1.0509874487773dB,-197.249854040204°)
1.94984459975803e+005	(-1.06593942344765dB,-199.287854918854°)
1.99526231496887e+005	(-1.0815662447081dB,-201.334588179649°)
2.04173794466952e+005	(-1.09789550175293dB,-203.391049019505°)
2.08929613085403e+005	(-1.11495575306933dB,-205.458231647614°)
2.13796208950222e+005	(-1.13277654665133dB,-207.537129524022°)
2.18776162394954e+005	(-1.15138843918095dB,-209.628735583249°)
2.23872113856833e+005	(-1.17082301402111dB,-211.734042443256°)
2.29086765276776e+005	(-1.19111289788763dB,-213.85404260015°)
2.34422881531991e+005	(-1.21229177601994dB,-215.989728609027°)
2.39883291901948e+005	(-1.23439440570632dB,-218.142093251502°)
2.45470891568501e+005	(-1.25745662798213dB,-220.31212969047°)
2.51188643150956e+005	(-1.2815153773226dB,-222.500831612734°)
2.57039578276885e+005	(-1.30660868916173dB,-224.709193360276°)
2.63026799189536e+005	(-1.33277570503544dB,-226.938210051031°)
2.69153480392690e+005	(-1.36005667517919dB,-229.188877690097°)
2.75422870333815e+005	(-1.38849295837989dB,-231.46219327247°)
2.81838293126444e+005	(-1.41812701890106dB,-233.75915487857°)
2.88403150312659e+005	(-1.4490024202969dB,-236.080761763825°)
2.95120922666637e+005	(-1.48116381593265dB,-238.42801444383°)
3.01995172040200e+005	(-1.5146569360416dB,-240.80191477670098°)
3.09029543251357e+005	(-1.54952857115499dB,-243.203466044504°)
3.16227766016836e+005	(-1.58582655175043dB,-245.633673035502°)
3.23593656929626e+005	(-1.62359972398844dB,-248.09354212948801°)
3.31131121482589e+005	(-1.66289792141365dB,-250.58408138834102°)
3.38844156139200e+005	(-1.70377193252583dB,-253.10630065422401°)
3.46736850452529e+005	(-1.74627346414707dB,-255.661211657947°)
3.54813389233573e+005	(-1.79045510054128dB,-258.249828140143°)
3.63078054770099e+005	(-1.83637025826833dB,-260.8731659880148°)
3.71535229097170e+005	(-1.88407313679556dB,-263.53224339062797°)
3.80189396320558e+005	(-1.93361866492326dB,-266.2280810155452°)
3.89045144994278e+005	(-1.98506244311452dB,-268.9617022100233°)
3.98107170553494e+005	(-2.03846068188175dB,-271.7341332296859°)
4.07380277804110e+005	(-2.09387013639863dB,-274.54640349788747°)
4.16869383470332e+005	(-2.15134803758585dB,-277.3995458987062°)
4.26579518801589e+005	(-2.21095201993664dB,-280.294597106692°)
4.36515832240163e+005	(-2.27274004642105dB,-283.2325979562037°)
4.46683592150960e+005	(-2.33677033084776dB,-286.2145938531624°)
4.57088189614872e+005	(-2.40310125810802dB,-289.2416352318593°)
4.67735141287195e+005	(-2.47179130278263dB,-292.31477805919747°)
4.78630092322635e+005	(-2.54289894663616dB,-295.435084388523°)
4.89778819368442e+005	(-2.61648259555923dB,-298.6036229649498°)
5.00000000000000e+005	(-2.68464161844217dB,-301.4877236305066°)
Step Information: Run=2  (Run: 2/20)
1.00000000000000e+003	(-284.20867245463dB,-281.0533108710807°)
1.02329299228075e+003	(-282.003167589414dB,-281.320283447462°)
1.04712854805090e+003	(-279.797402028405dB,-281.5933411783506°)
1.07151930523761e+003	(-277.591363395153dB,-281.8726348130064°)
1.09647819614319e+003	(-275.385038719468dB,-282.1583188461106°)
1.12201845430196e+003	(-273.178414408882dB,-282.45055161887467°)
1.14815362149688e+003	(-270.971476218107dB,-282.7494954510828°)
1.17489755493953e+003	(-268.764209217125dB,-283.0553167463094°)
1.20226443461741e+003	(-266.55659775799dB,-283.3681861317546°)
1.23026877081238e+003	(-264.348625439119dB,-283.6882785858822°)
1.25892541179417e+003	(-262.140275068686dB,-284.0157735771169°)
1.28824955169313e+003	(-259.931528625479dB,-284.3508552076713°)
1.31825673855641e+003	(-257.722367218164dB,-284.6937123600927°)
1.34896288259165e+003	(-255.512771042203dB,-285.04453886228°)
1.38038426460288e+003	(-253.302719334434dB,-285.4035336396439°)
1.41253754462275e+003	(-251.092190325831dB,-285.77090089117337°)
1.44543977074593e+003	(-248.881161191169dB,-286.1468502642121°)
1.47910838816821e+003	(-246.66960799643dB,-286.5315970453874°)
1.51356124843621e+003	(-244.4575056431dB,-286.9253623513888°)
1.54881661891248e+003	(-242.244827810243dB,-287.3283733302123°)
1.58489319246111e+003	(-240.031546892353dB,-287.7408633808035°)
1.62181009735893e+003	(-237.817633935128dB,-288.163072374744°)
1.65958690743756e+003	(-235.603058566716dB,-288.5952468872463°)
1.69824365246174e+003	(-233.387788925865dB,-289.0376404515445°)
1.73780082874937e+003	(-231.171791586196dB,-289.4905138109081°)
1.77827941003892e+003	(-228.955031475828dB,-289.9541351971809°)
1.81970085860998e+003	(-226.737471793285dB,-290.4287806176295°)
1.86208713666287e+003	(-224.519073917928dB,-290.91473415253347°)
1.90546071796325e+003	(-222.299797316154dB,-291.41228828245903°)
1.94984459975804e+003	(-220.079599441908dB,-291.9217442176138°)
1.99526231496888e+003	(-217.858435631539dB,-292.4434122620491°)
2.04173794466953e+003	(-215.636258992966dB,-292.9776121816052°)
2.08929613085404e+003	(-213.413020287993dB,-293.5246736107802°)
2.13796208950223e+003	(-211.188667808572dB,-294.0849364639687°)
2.18776162394955e+003	(-208.963147244969dB,-294.6587513927139°)
2.23872113856834e+003	(-206.736401546721dB,-295.2464802539978°)
2.29086765276777e+003	(-204.508370775167dB,-295.8484966149176°)
2.34422881531992e+003	(-202.278991947305dB,-296.4651862876575°)
2.39883291901949e+003	(-200.04819886965dB,-297.0969479000052°)
2.45470891568503e+003	(-197.815921962967dB,-297.7441934984427°)
2.51188643150958e+003	(-195.582088074974dB,-298.4073491967402°)
