Freq.	V(n009)/I(C3)
Step Information: Run=1  (Run: 1/20)
1.00000000000000e+003	(1592174.20485869dB,91.5893398665112°)
1.02329299228075e+003	(1555960.6637654246dB,91.6263400962548°)
1.04712854805090e+003	(1520572.1130543395dB,91.6642007246768°)
1.07151930523761e+003	(1485989.7892077197dB,91.7029416896411°)
1.09647819614319e+003	(1452195.3561767014dB,91.7425833860437°)
1.12201845430196e+003	(1419170.895660289dB,91.7831466759328°)
1.14815362149688e+003	(1386898.8976029316dB,91.8246528988265°)
1.17489755493953e+003	(1355362.2509120407dB,91.8671238822309°)
1.20226443461741e+003	(1324544.234383625dB,91.9105819523604°)
1.23026877081238e+003	(1294428.5078373167dB,91.955049945062°)
1.25892541179417e+003	(1264999.1034515998dB,92.0005512169448°)
1.28824955169313e+003	(1236240.4172976161dB,92.0471096567154°)
1.31825673855641e+003	(1208137.201065227dB,92.0947496967222°)
1.34896288259165e+003	(1180674.5539778317dB,92.1434963247074°)
1.38038426460288e+003	(1153837.9148914504dB,92.1933750957681°)
1.41253754462275e+003	(1127613.0545736973dB,92.2444121445275°)
1.44543977074593e+003	(1101986.0681589318dB,92.296634197515°)
1.47910838816821e+003	(1076943.367775069dB,92.3500685857556°)
1.51356124843621e+003	(1052471.6753391086dB,92.4047432575679°)
1.54881661891248e+003	(1028558.0155155712dB,92.4606867915694°)
1.58489319246111e+003	(1005189.7088369924dB,92.517928409887°)
1.62181009735893e+003	(982354.3649803314dB,92.5764979915724°)
1.65958690743756e+003	(960039.87619616dB,92.6364260862176°)
1.69824365246174e+003	(938234.4108893877dB,92.6977439277692°)
1.73780082874937e+003	(916926.4073442991dB,92.7604834485368°)
1.77827941003892e+003	(896104.5675939417dB,92.8246772933917°)
1.81970085860998e+003	(875757.8514290383dB,92.8903588341501°)
1.86208713666287e+003	(855875.4705431944dB,92.957562184136°)
1.90546071796325e+003	(836446.8828119389dB,93.0263222129156°)
1.94984459975804e+003	(817461.7867021129dB,93.0966745611977°)
1.99526231496888e+003	(798910.1158087192dB,93.1686556558892°)
2.04173794466953e+003	(780782.0335162434dB,93.2423027252977°)
2.08929613085404e+003	(763067.9277819629dB,93.3176538144707°)
2.13796208950223e+003	(745758.4060382603dB,93.3947478006574°)
2.18776162394955e+003	(728844.2902106832dB,93.4736244088824°)
2.23872113856834e+003	(712316.6118506925dB,93.5543242276156°)
2.29086765276777e+003	(696166.6073781356dB,93.6368887245211°)
2.34422881531992e+003	(680385.7134330568dB,93.7213602622697°)
2.39883291901949e+003	(664965.5623335772dB,93.8077821143938°)
2.45470891568503e+003	(649897.977636915dB,93.896198481164°)
2.51188643150958e+003	(635174.9698019197dB,93.9866545054641°)
2.57039578276886e+003	(620788.7319508273dB,94.0791962886397°)
2.63026799189538e+003	(606731.6357268561dB,94.173870906292°)
2.69153480392691e+003	(592996.2272474596dB,94.2707264239872°)
2.75422870333816e+003	(579575.2231487683dB,94.3698119128494°)
2.81838293126445e+003	(566461.5067209766dB,94.4711774650009°)
2.88403150312660e+003	(553648.1241316971dB,94.5748742088125°)
2.95120922666638e+003	(541128.280735246dB,94.680954323922°)
3.01995172040201e+003	(528895.3374662132dB,94.7894710559767°)
3.09029543251359e+003	(516942.80731533887dB,94.9004787310514°)
3.16227766016838e+003	(505264.3518856918dB,95.0140327696909°)
3.23593656929628e+003	(493853.7780273216dB,95.1301897005198°)
3.31131121482591e+003	(482705.03454836673dB,95.2490071733614°)
3.38844156139202e+003	(471812.2090017595dB,95.3705439717997°)
3.46736850452531e+003	(461169.52454413683dB,95.4948600251164°)
3.54813389233575e+003	(450771.33686730295dB,95.6220164195285°)
3.63078054770101e+003	(440612.131198769dB,95.7520754086463°)
3.71535229097172e+003	(430686.51937092165dB,95.8851004230685°)
3.80189396320561e+003	(420989.2369566705dB,96.0211560790217°)
3.89045144994280e+003	(411515.14047038683dB,96.1603081859486°)
3.98107170553497e+003	(402259.2046322473dB,96.3026237529405°)
4.07380277804112e+003	(393216.51969468256dB,96.4481709939044°)
4.16869383470335e+003	(384382.28882973635dB,96.5970193313462°)
4.26579518801592e+003	(375751.82557526603dB,96.7492393986459°)
4.36515832240165e+003	(367320.55133921053dB,96.9049030406906°)
4.46683592150962e+003	(359083.9929604263dB,97.0640833127257°)
4.57088189614874e+003	(351037.78032426833dB,97.2268544772724°)
4.67735141287197e+003	(343177.64403226535dB,97.393291998954°)
4.78630092322637e+003	(335499.41312444356dB,97.5634725370635°)
4.89778819368445e+003	(327999.01285249135dB,97.7374739356928°)
5.01187233627271e+003	(320672.46250322595dB,97.9153752112378°)
5.12861383991364e+003	(313515.8732708691dB,98.0972565370803°)
5.24807460249772e+003	(306525.4461769209dB,98.2831992252387°)
5.37031796370252e+003	(299697.47003635153dB,98.4732857047687°)
5.49540873857624e+003	(293028.31946923904dB,98.6675994966814°)
5.62341325190348e+003	(286514.4529564556dB,98.866225185141°)
5.75439937337156e+003	(280152.41093853966dB,99.0692483846853°)
5.88843655355588e+003	(273938.8139564701dB,99.2767557032067°)
6.02559586074357e+003	(267870.3608333221dB,99.4888347004175°)
6.16595001861481e+003	(261943.82689579445dB,99.7055738415113°)
6.30957344480192e+003	(256156.06223452435dB,99.9270624457221°)
6.45654229034654e+003	(250503.99000231025dB,100.153390629472°)
6.60693448007595e+003	(244984.6047489695dB,100.384649243784°)
6.76082975391980e+003	(239594.9707920405dB,100.620929805637°)
6.91830970918935e+003	(234332.22062247977dB,100.862324422905°)
7.07945784384136e+003	(229193.55334404908dB,101.108925712559°)
7.24435960074989e+003	(224176.2331456359dB,101.360826711742°)
7.41310241300916e+003	(219277.58780583309dB,101.618120781376°)
7.58577575029182e+003	(214495.00722834314dB,101.880901501928°)
7.76247116628690e+003	(209825.94200774646dB,102.149262560947°)
7.94328234724280e+003	(205267.90202454382dB,102.423297632016°)
8.12830516164097e+003	(200818.45506865674dB,102.703100244727°)
8.31763771102669e+003	(196475.22549060686dB,102.988763645318°)
8.51138038202374e+003	(192235.89287923873dB,103.280380647596°)
8.70963589956079e+003	(188098.19076562254dB,103.578043473792°)
8.91250938133744e+003	(184059.9053519787dB,103.88184358499°)
9.12010839355908e+003	(180118.8742648886dB,104.191871500815°)
9.33254300796989e+003	(176272.98533200767dB,104.508216608049°)
9.54992586021434e+003	(172520.17538182184dB,104.830966957897°)
9.77237220955809e+003	(168858.4290650563dB,105.160209051644°)
9.99999999999998e+003	(165285.7776977351dB,105.496027614468°)
1.02329299228075e+004	(161800.29812456612dB,105.838505357244°)
1.04712854805090e+004	(158400.11160256405dB,106.187722726183°)
1.07151930523760e+004	(155083.3827035346dB,106.54375764024°)
1.09647819614318e+004	(151848.3182355295dB,106.906685216252°)
1.12201845430196e+004	(148693.1661820959dB,107.276577481873°)
1.14815362149688e+004	(145616.2146590197dB,107.653503076414°)
1.17489755493953e+004	(142615.79088794533dB,108.0375269398°)
1.20226443461741e+004	(139690.26018623894dB,108.428709989949°)
1.23026877081238e+004	(136838.02497287779dB,108.827108788973°)
1.25892541179416e+004	(134057.5237895175dB,109.232775198709°)
1.28824955169313e+004	(131347.23033685933dB,109.645756026225°)
1.31825673855640e+004	(128705.65252527114dB,110.066092660042°)
1.34896288259165e+004	(126131.33154005393dB,110.493820697982°)
1.38038426460288e+004	(123622.84092048084dB,110.928969567675°)
1.41253754462275e+004	(121178.78565279208dB,111.371562140901°)
1.44543977074592e+004	(118797.80127677103dB,111.821614343131°)
1.47910838816820e+004	(116478.55300579738dB,112.279134759754°)
1.51356124843620e+004	(114219.73486039006dB,112.744124240668°)
1.54881661891248e+004	(112020.06881524272dB,113.216575505073°)
1.58489319246111e+004	(109878.30395973015dB,113.696472748468°)
1.62181009735893e+004	(107793.21567202036dB,114.183791254025°)
1.65958690743756e+004	(105763.60480720554dB,114.67849701068°)
1.69824365246174e+004	(103788.29689930736dB,115.18054634042°)
1.73780082874937e+004	(101866.14137789588dB,115.68988553743°)
1.77827941003892e+004	(99996.01079942854dB,116.206450521844°)
1.81970085860998e+004	(98176.80009388927dB,116.730166511032°)
1.86208713666286e+004	(96407.42582719447dB,117.260947711404°)
1.90546071796324e+004	(94686.8254799796dB,117.798697033813°)
1.94984459975804e+004	(93013.95674336894dB,118.34330583572°)
1.99526231496887e+004	(91387.79683239738dB,118.894653693274°)
2.04173794466952e+004	(89807.34181784163dB,119.452608206479°)
2.08929613085403e+004	(88271.60597718525dB,120.017024840597°)
2.13796208950222e+004	(86779.62116554084dB,120.587746806835°)
2.18776162394954e+004	(85330.43620731753dB,121.164604985275°)
2.23872113856833e+004	(83923.11630947114dB,121.747417892842°)
2.29086765276777e+004	(82556.74249715499dB,122.335991698921°)
2.34422881531991e+004	(81230.41107258874dB,122.930120290975°)
2.39883291901948e+004	(79943.23309793697dB,123.529585392258°)
2.45470891568502e+004	(78694.33390294676dB,124.134156733377°)
2.51188643150957e+004	(77482.85261806086dB,124.743592279096°)
2.57039578276885e+004	(76307.94173364986dB,125.357638511364°)
2.63026799189537e+004	(75168.76668592574dB,125.976030769136°)
2.69153480392691e+004	(74064.50547003758dB,126.598493645036°)
2.75422870333816e+004	(72994.34828071628dB,127.224741438478°)
2.81838293126444e+004	(71957.4971807429dB,127.854478664293°)
2.88403150312660e+004	(70953.16579740413dB,128.487400615401°)
2.95120922666637e+004	(69980.57904692122dB,129.123193977559°)
3.01995172040200e+004	(69038.97288675749dB,129.761537493625°)
3.09029543251358e+004	(68127.59409551059dB,130.40210267433°)
3.16227766016837e+004	(67245.7000799751dB,131.04455455198°)
3.23593656929627e+004	(66392.55870878958dB,131.688552473095°)
3.31131121482590e+004	(65567.44817193884dB,132.333750925508°)
3.38844156139201e+004	(64769.656865221405dB,132.979800395074°)
3.46736850452530e+004	(63998.483298638166dB,133.626348246805°)
3.54813389233574e+004	(63253.23602752272dB,134.27303962493°)
3.63078054770100e+004	(62533.23360509969dB,134.919518366171°)
3.71535229097171e+004	(61837.80455501925dB,135.565427920381°)
3.80189396320560e+004	(61166.287362315095dB,136.210412272571°)
3.89045144994279e+004	(60518.03048113211dB,136.854116860355°)
3.98107170553496e+004	(59892.3923574823dB,137.496189480893°)
4.07380277804111e+004	(59288.74146522695dB,138.136281181537°)
4.16869383470334e+004	(58706.45635342256dB,138.774047128569°)
4.26579518801591e+004	(58144.92570315926dB,139.409147448689°)
4.36515832240164e+004	(57603.548391981174dB,140.04124803822°)
4.46683592150961e+004	(57081.733564007394dB,140.670021335374°)
4.57088189614873e+004	(56578.900703886364dB,141.29514705133°)
4.67735141287196e+004	(56094.47971275852dB,141.916312856347°)
4.78630092322636e+004	(55627.91098446938dB,142.533215017615°)
4.89778819368444e+004	(55178.645480336396dB,143.145558986053°)
5.01187233627270e+004	(54746.14480087419dB,143.753059929807°)
5.12861383991362e+004	(54329.881252985804dB,144.355443212716°)
5.24807460249770e+004	(53929.33791121573dB,144.952444816563°)
5.37031796370250e+004	(53544.008671818854dB,145.543811706434°)
5.49540873857622e+004	(53173.39829849348dB,146.129302139021°)
5.62341325190346e+004	(52817.02245877607dB,146.708685914193°)
5.75439937337154e+004	(52474.4077502311dB,147.281744570617°)
5.88843655355586e+004	(52145.09171570498dB,147.848271526599°)
6.02559586074355e+004	(51828.622847037484dB,148.408072167763°)
6.16595001861479e+004	(51524.560576788535dB,148.960963883461°)
6.30957344480190e+004	(51232.475257633356dB,149.506776054165°)
6.45654229034652e+004	(50951.948129232405dB,150.045349992322°)
6.60693448007593e+004	(50682.571272488254dB,150.57653883938°)
6.76082975391979e+004	(50423.94755122283dB,151.100207421858°)
6.91830970918933e+004	(50175.69054140396dB,151.616232069489°)
7.07945784384134e+004	(49937.42444815593dB,152.124500398513°)
7.24435960074987e+004	(49708.78401086932dB,152.624911063301°)
7.41310241300914e+004	(49489.414396806824dB,153.117373479466°)
7.58577575029180e+004	(49278.9710836705dB,153.601807521629°)
7.76247116628688e+004	(49077.11973164992dB,154.07814319895°)
7.94328234724277e+004	(48883.53604552954dB,154.546320311474°)
8.12830516164095e+004	(48697.905627464774dB,155.006288090227°)
8.31763771102667e+004	(48519.923821072516dB,155.458004823922°)
8.51138038202372e+004	(48349.29554751072dB,155.901437474961°)
8.70963589956076e+004	(48185.7351342254dB,156.33656128731°)
8.91250938133741e+004	(48028.96613706107dB,156.763359388655°)
9.12010839355905e+004	(47878.721156438914dB,157.181822389087°)
9.33254300796986e+004	(47734.74164828124dB,157.591947978411°)
9.54992586021431e+004	(47596.777730375106dB,157.993740523988°)
9.77237220955805e+004	(47464.58798484558dB,158.387210670865°)
9.99999999999995e+004	(47337.93925737687dB,158.772374945778°)
1.02329299228075e+005	(47216.60645382698dB,159.149255366446°)
1.04712854805089e+005	(47100.37233482896dB,159.51787905742°)
1.07151930523760e+005	(46989.02730895623dB,159.878277873592°)
1.09647819614318e+005	(46882.369225004935dB,160.230488032337°)
1.12201845430196e+005	(46780.20316390339dB,160.574549755094°)
1.14815362149688e+005	(46682.34123074228dB,160.910506919093°)
1.17489755493952e+005	(46588.60234736451dB,161.238406719793°)
1.20226443461741e+005	(46498.81204595045dB,161.558299344478°)
1.23026877081237e+005	(46412.80226396802dB,161.870237657374°)
1.25892541179416e+005	(46330.411140858596dB,162.174276896525°)
1.28824955169313e+005	(46251.48281676557dB,162.470474382601°)
1.31825673855640e+005	(46175.867233606354dB,162.758889239716°)
1.34896288259165e+005	(46103.41993874249dB,163.03958212827°)
1.38038426460288e+005	(46034.00189148034dB,163.312614989757°)
1.41253754462275e+005	(45967.47927260395dB,163.578050803432°)
1.44543977074592e+005	(45903.72329711798dB,163.835953354677°)
1.47910838816820e+005	(45842.61003034067dB,164.08638701486°)
1.51356124843620e+005	(45784.02020748891dB,164.329416532437°)
1.54881661891247e+005	(45727.83905683698dB,164.565106835048°)
1.58489319246110e+005	(45673.956126548284dB,164.793522842272°)
1.62181009735892e+005	(45622.26511522519dB,165.014729288757°)
1.65958690743755e+005	(45572.66370622639dB,165.228790557355°)
1.69824365246173e+005	(45525.053405776845dB,165.435770521933°)
1.73780082874937e+005	(45479.33938486829dB,165.635732399488°)
1.77827941003891e+005	(45435.4303249544dB,165.828738611207°)
1.81970085860997e+005	(45393.238267412074dB,166.014850652086°)
1.86208713666286e+005	(45352.678466738165dB,166.19412896877°)
1.90546071796324e+005	(45313.66924743523dB,166.366632845204°)
1.94984459975803e+005	(45276.1318645332dB,166.532420295772°)
1.99526231496887e+005	(45239.990367680744dB,166.691547965528°)
2.04173794466952e+005	(45205.17146873229dB,166.844071037201°)
2.08929613085403e+005	(45171.60441275438dB,166.990043144602°)
2.13796208950222e+005	(45139.22085236334dB,167.129516292123°)
2.18776162394954e+005	(45107.95472529437dB,167.262540779985°)
2.23872113856833e+005	(45077.74213512099dB,167.389165134942°)
2.29086765276776e+005	(45048.52123500132dB,167.509436046127°)
2.34422881531991e+005	(45020.23211436797dB,167.623398305761°)
2.39883291901948e+005	(44992.81668843143dB,167.731094754447°)
2.45470891568501e+005	(44966.218590406024dB,167.832566230788°)
2.51188643150956e+005	(44940.38306632788dB,167.927851525088°)
2.57039578276885e+005	(44915.25687236058dB,168.01698733689°)
2.63026799189536e+005	(44890.788174470516dB,168.100008236142°)
2.69153480392690e+005	(44866.92645035118dB,168.176946627775°)
2.75422870333815e+005	(44843.62239348622dB,168.247832719507°)
2.81838293126444e+005	(44820.82781922673dB,168.312694492689°)
2.88403150312659e+005	(44798.49557277217dB,168.371557676032°)
2.95120922666637e+005	(44776.57943893824dB,168.42444572205°)
3.01995172040200e+005	(44755.03405359275dB,168.471379786098°)
3.09029543251357e+005	(44733.81481664847dB,168.512378707863°)
3.16227766016836e+005	(44712.8778065054dB,168.547458995202°)
3.23593656929626e+005	(44692.17969582131dB,168.576634810229°)
3.31131121482589e+005	(44671.677668513454dB,168.599917957556°)
3.38844156139200e+005	(44651.32933787813dB,168.617317874621°)
3.46736850452529e+005	(44631.0926657312dB,168.628841624039°)
3.54813389233573e+005	(44610.92588246117dB,168.63449388792°)
3.63078054770099e+005	(44590.787407907344dB,168.634276964134°)
3.71535229097170e+005	(44570.635772959926dB,168.628190764476°)
3.80189396320558e+005	(44550.42954180254dB,168.616232814739°)
3.89045144994278e+005	(44530.12723470021dB,168.598398256682°)
3.98107170553494e+005	(44509.68725126398dB,168.574679851919°)
4.07380277804110e+005	(44489.06779410558dB,168.545067987732°)
4.16869383470332e+005	(44468.22679281959dB,168.509550684878°)
4.26579518801589e+005	(44447.121828224066dB,168.468113607408°)
4.36515832240163e+005	(44425.71005679941dB,168.420740074582°)
4.46683592150960e+005	(44403.948135282015dB,168.367411074951°)
4.57088189614872e+005	(44381.79214535768dB,168.308105282679°)
4.67735141287195e+005	(44359.197518428984dB,168.24279907624°)
4.78630092322635e+005	(44336.11896041993dB,168.171466559559°)
4.89778819368442e+005	(44312.51037660875dB,168.09407958577°)
5.00000000000000e+005	(44290.84394709143dB,168.019487367502°)
Step Information: Run=2  (Run: 2/20)
1.00000000000000e+003	(1592174.20485869dB,91.5893398665112°)
1.02329299228075e+003	(1555960.6637654246dB,91.6263400962548°)
1.04712854805090e+003	(1520572.1130543395dB,91.6642007246768°)
1.07151930523761e+003	(1485989.7892077197dB,91.7029416896411°)
1.09647819614319e+003	(1452195.3561767014dB,91.7425833860437°)
1.12201845430196e+003	(1419170.895660289dB,91.7831466759328°)
1.14815362149688e+003	(1386898.8976029316dB,91.8246528988265°)
1.17489755493953e+003	(1355362.2509120407dB,91.8671238822309°)
1.20226443461741e+003	(1324544.234383625dB,91.9105819523604°)
1.23026877081238e+003	(1294428.5078373167dB,91.955049945062°)
1.25892541179417e+003	(1264999.1034515998dB,92.0005512169448°)
1.28824955169313e+003	(1236240.4172976161dB,92.0471096567154°)
1.31825673855641e+003	(1208137.201065227dB,92.0947496967222°)
1.34896288259165e+003	(1180674.5539778317dB,92.1434963247074°)
1.38038426460288e+003	(1153837.9148914504dB,92.1933750957681°)
1.41253754462275e+003	(1127613.0545736973dB,92.2444121445275°)
1.44543977074593e+003	(1101986.0681589318dB,92.296634197515°)
1.47910838816821e+003	(1076943.367775069dB,92.3500685857556°)
1.51356124843621e+003	(1052471.6753391086dB,92.4047432575679°)
1.54881661891248e+003	(1028558.0155155712dB,92.4606867915694°)
1.58489319246111e+003	(1005189.7088369924dB,92.517928409887°)
1.62181009735893e+003	(982354.3649803314dB,92.5764979915724°)
1.65958690743756e+003	(960039.87619616dB,92.6364260862176°)
1.69824365246174e+003	(938234.4108893877dB,92.6977439277692°)
1.73780082874937e+003	(916926.4073442991dB,92.7604834485368°)
1.77827941003892e+003	(896104.5675939417dB,92.8246772933917°)
1.81970085860998e+003	(875757.8514290383dB,92.8903588341501°)
1.86208713666287e+003	(855875.4705431944dB,92.957562184136°)
1.90546071796325e+003	(836446.8828119389dB,93.0263222129156°)
1.94984459975804e+003	(817461.7867021129dB,93.0966745611977°)
1.99526231496888e+003	(798910.1158087192dB,93.1686556558892°)
2.04173794466953e+003	(780782.0335162434dB,93.2423027252977°)
2.08929613085404e+003	(763067.9277819629dB,93.3176538144707°)
2.13796208950223e+003	(745758.4060382603dB,93.3947478006574°)
2.18776162394955e+003	(728844.2902106832dB,93.4736244088824°)
2.23872113856834e+003	(712316.6118506925dB,93.5543242276156°)
2.29086765276777e+003	(696166.6073781356dB,93.6368887245211°)
2.34422881531992e+003	(680385.7134330568dB,93.7213602622697°)
2.39883291901949e+003	(664965.5623335772dB,93.8077821143938°)
2.45470891568503e+003	(649897.977636915dB,93.896198481164°)
2.51188643150958e+003	(635174.9698019197dB,93.9866545054641°)
2.57039578276886e+003	(620788.7319508273dB,94.0791962886397°)
2.63026799189538e+003	(606731.6357268561dB,94.173870906292°)
2.69153480392691e+003	(592996.2272474596dB,94.2707264239872°)
2.75422870333816e+003	(579575.2231487683dB,94.3698119128494°)
2.81838293126445e+003	(566461.5067209766dB,94.4711774650009°)
2.88403150312660e+003	(553648.1241316971dB,94.5748742088125°)
2.95120922666638e+003	(541128.280735246dB,94.680954323922°)
3.01995172040201e+003	(528895.3374662132dB,94.7894710559767°)
