#Digilent WaveForms Network Analyzer - Bode
#Device Name: Discovery2
#Serial Number: SN:210321A35FCC
#Date Time: 2019-11-27 17:33:44.541
#Start: 1000 Hz
#Stop: 1e+06 Hz
#Steps: 800
#Wavegen: Wavegen1
#Amplification: 1 X
#Settle: 10 ms
#MinPeriods: 16 
#Channel: Channel 1
#Range: 5.42537 V
#Offset: 0.000183761 V
#Relative: no
#Channel: Channel 2
#Range: 5.47028 V
#Offset: -7.92091e-07 V
#Relative: yes

Frequency (Hz),Channel 1 Magnitude (dB),Channel 2 Magnitude (dB),Channel 2 Phase (*)
1000.000000000001,0.01912304041600912,-89.26414594694737,-40.90601794364257
1008.682981252564,0.01823897054925956,-98.46814745292494,52.01504256524718
1017.441356668559,0.01892429435879748,-91.10975414330325,-110.3213029706055
1026.275780894095,0.01878376259083697,-84.98992662121367,-24.67162076667437
1035.186914259556,0.01917061858378378,-86.09854816734776,-104.3371201899499
1044.175422828971,0.0192612076513653,-90.11402990253829,-98.66134530353918
1053.241978449782,0.01870823685354469,-96.05481204887028,-120.5691867122765
1062.387258803074,0.01867256934256264,-94.29176027854041,142.7245273935855
1071.611947454223,0.01846046220626019,-91.7702451309478,-87.9447944616777
1080.91673390399,0.01905874466911655,-87.31907464630318,167.3515797586241
1090.30231364006,0.01830966114977587,-89.53557101785414,-105.6084701203697
1099.769388189022,0.01835226206075304,-88.84698049738277,-78.12724333050595
1109.31866516881,0.0186227844032385,-99.66821739355768,-106.0606826189118
1118.950858341589,0.0182373349556039,-87.66752495709305,-149.0762421392975
1128.666687667108,0.0190648233828781,-90.80616936788834,173.4837615721784
1138.466879356514,0.01755000059735629,-98.45114170668501,44.44558733237876
1148.352165926631,0.01927893450469142,-86.42970045113914,-101.4481545918047
1158.323286254712,0.01757117348118493,-91.32229350451367,178.5335467465553
1168.380985633668,0.01844845038661291,-94.50591299733709,179.6301204440772
1178.526015827776,0.01840177336013393,-94.50938347274129,175.368568538397
1188.759135128866,0.01854710950180265,-112.3368386174163,-142.0838515029304
1199.081108413004,0.01851030320000823,-97.41994714179184,-104.0615979625654
1209.492707197656,0.01833953246345276,-101.8906681509988,-78.71507445851931
1219.994709699364,0.0183260567161375,-91.47981476298187,-153.814878535452
1230.58790089191,0.01882959413079241,-88.67314484883828,-67.03224144189718
1241.273072564985,0.01856593386787959,-97.41374531965293,-77.3605129886158
1252.051023383379,0.01874081432439035,-86.98725017503739,-156.8841447104171
1262.922558946667,0.01840863165328838,-96.27220240019439,153.3536962410209
1273.888491849441,0.0183882667568807,-87.20199380934565,-125.6848699314052
1284.949641742025,0.01847352364788409,-92.70211145778498,-120.8754120100488
1296.106835391758,0.0186776170967769,-97.96246167374159,-76.05603060314247
1307.360906744785,0.01807963116898011,-94.75434828069439,-105.2520180185076
1318.712696988382,0.01753883343409333,-81.89123315811585,-119.7102316613917
1330.163054613849,0.01832185482161166,-89.74608700757132,-114.403587504317
1341.712835479913,0.01816045625068982,-94.93222531366536,-148.9946469771568
1353.362902876708,0.01840637113795292,-85.93413995669154,-77.03607972613275
1365.114127590301,0.01854519274249123,-86.57250161665638,78.10507012739272
1376.967387967775,0.01776603415207698,-97.55356569443187,140.4673522497817
1388.923569982891,0.01842068079883641,-90.74476477086662,168.9117073894625
1400.983567302295,0.01817606525623401,-85.48028744304857,-140.9908562449239
1413.148281352329,0.01753659782579747,-81.90169303753825,-175.3937128439309
1425.418621386403,0.01739424540689553,-89.30006439760034,-109.2490425331439
1437.795504552955,0.01824518478373651,-92.47738602120779,-91.11906737327082
1450.279855964008,0.01833848191059678,-88.36822698437517,-101.2083479937131
1462.872608764313,0.01816707116855727,-89.3295904943222,-85.58978904087496
1475.574704201101,0.01777901009696701,-81.96832652710233,-115.0551877475458
1488.387091694435,0.01850027383759882,-90.9506614646284,-131.5884698507022
1501.310728908174,0.01796641350303091,-85.84296111120528,-85.68557999197131
1514.346581821555,0.01813199401766341,-94.05691214300889,-127.824085555215
1527.495624801396,0.01753314773304963,-93.42044361822465,-63.04553436175161
1540.758840674918,0.01737369460097203,-94.43795361274297,162.4532678120494
1554.137220803218,0.01741154199143868,-88.45591759351203,-124.4415894005365
1567.631765155362,0.01764904792104053,-88.29475651754834,-12.09907543120426
1581.243482383128,0.01794454172621701,-91.90325673620541,1.4327948585819
1594.9733898964,0.0174046406225233,-87.71506054297458,-81.7712871807577
1608.822513939205,0.01781966904426607,-85.05408285271483,-64.00836982679569
1622.791889666442,0.01746290184514572,-89.75345014864955,-156.0888105388522
1636.882561221226,0.01734426778805579,-88.26217417858608,-159.5156845849487
1651.095581812957,0.01765223538962212,-81.14682054098709,-128.011861603277
1665.432013796029,0.01775236694744065,-89.4614481892348,-98.73449285223565
1679.892928749236,0.01734488920208072,-92.63664423525496,-73.29032892697057
1694.47940755588,0.01743314816222367,-85.61245799472053,-106.4285543263314
1709.192540484542,0.01709521039654586,-88.15793682094245,-149.9123554902824
1724.033427270589,0.01762199290535186,-86.96523816523418,-122.1477645909621
1739.003177198373,0.01676973307936338,-83.31042160259855,-97.8443545781459
1754.102909184131,0.01684398412288686,-86.33398466686943,-97.50730376909604
1769.333751859645,0.01711763690353814,-88.70916357146339,109.8931936373814
1784.696843656568,0.01675031827710112,-87.36776115367289,-160.3247823751302
1800.193332891546,0.01713963915077449,-85.29881339767593,-126.5591766227758
1815.824377852032,0.01660596311821154,-85.97796780692819,-114.7792740208374
1831.591146882867,0.01774877485244214,-86.77306235270463,-156.5741815160975
1847.494818473613,0.0168212023464124,-96.41896778465494,162.4560110436925
1863.536581346626,0.01627783878479181,-102.1297464298466,-135.1001907762895
1879.717634545924,0.01675218785553885,-100.278027955487,-138.0281744724843
1896.039187526798,0.01676211673674447,-99.1480447209088,-162.527872649414
1912.502460246217,0.01672399677161994,-84.44393833036767,-107.3648649605754
1929.108683254017,0.01738522895717112,-83.27301990086313,-126.8810023126007
1945.859097784868,0.01730186480242865,-89.97485763725672,176.2877886642624
1962.754955851062,0.01599663955951799,-87.60004317971163,-131.5507028156352
1979.797520336091,0.0163818000346096,-93.42734820110438,-75.99759250002245
1996.98806508904,0.01631611767080982,-92.85486366982644,-104.466153006405
2014.327875019799,0.01685435312312975,-89.11889534593851,-34.76449203924859
2031.818246195113,0.01720629554023392,-91.66894928111984,-108.5058985121204
2049.460485935438,0.01691174842555387,-87.38350787898509,-117.4515174942432
2067.255912912686,0.01616582529399226,-88.63976749242016,-138.8094229936989
2085.205857248756,0.01646287577554486,-89.05414419550237,-157.1063877044298
2103.31166061498,0.01709771788556003,-82.31553100299239,-92.10867804164863
2121.574676332399,0.01698987736915917,-85.29143537938418,-90.81475776577122
2139.996269472903,0.01740877945394398,-83.47547075172352,-126.5194210454287
2158.577816961293,0.01588656932458333,-86.72970760715762,-138.782462387503
2177.320707678165,0.01686941210636927,-85.45638971309717,-139.0503247640401
2196.226342563751,0.01524313333311612,-81.44692327585149,-126.2985149365656
2215.296134722619,0.01594441728294455,-88.8029193399318,-146.1073123490401
2234.531509529288,0.01618466435458048,-88.31932836452138,-72.81234625827192
2253.933904734793,0.01584403150736873,-87.1210364508153,-104.0614968850836
2273.504770574121,0.01525673127098954,-87.23747096003223,-143.1748017793631
2293.245569874628,0.01610246715979255,-90.90246526081194,-132.790564922848
2313.157778165372,0.01617606443950915,-90.96319191479792,-161.0130833109308
2333.242883787401,0.01586880043746221,-90.20298944855703,-152.0649875324057
2353.502388005005,0.01498713998073832,-87.8055040152523,-133.8175661537823
2373.937805117914,0.0161250770962269,-98.54639891255053,-100.4139376803689
2394.550662574503,0.01558228594421922,-88.89682624698112,-87.24851164082131
2415.342501085949,0.0156730224044027,-100.1913673216204,-77.87272622918985
2436.314874741396,0.01536881847461969,-89.54844966439275,-66.64586417092505
2457.469351124118,0.01501304494640689,-82.34746775689294,-132.2172560669551
2478.807511428676,0.01450739839481546,-87.18124078772831,-136.1211421336109
2500.330950579123,0.01519924137517392,-84.0833706309254,-164.4306918903227
2522.041277348204,0.0155451031446501,-84.11595431821016,-127.3226849587739
2543.940114477607,0.01557430807055048,-90.13202000581887,-166.5188455824289
2566.029098799259,0.01486736192338075,-83.31776055659913,-119.4603342633612
2588.309881357666,0.01552252526320174,-96.41163827245461,-98.94045240431008
2610.784127533315,0.0151005569519135,-95.36244552891057,-64.28483953007688
2633.453517167177,0.01470114748220136,-83.44804003614094,-139.8640840557087
2656.319744686235,0.01500240486651576,-89.17932242237069,-49.48223785184268
2679.384519230158,0.01437956623872119,-95.00472620973603,-65.08768084942216
2702.649564779043,0.01559469515536219,-86.64466535232448,-166.9335755190049
2726.116620282263,0.01466849468871302,-87.37369040980508,-151.7077123155138
2749.787439788477,0.01565523113025908,-89.64583701628843,-26.26709115485369
2773.663792576692,0.01491577254361145,-80.02840383615741,-145.4970741785309
2797.747463288548,0.0146190071723427,-84.40551894819313,-131.5346707100245
2822.04025206169,0.01470766812858613,-82.06351228645752,-139.7539556259184
2846.543974664316,0.01487802600053235,-84.89311305384572,-107.3593080943413
2871.260462630924,0.01477848339395748,-84.29616080403471,-136.1020598512035
2896.191563399173,0.01536353088111083,-88.10951558824507,-101.7324238808599
2921.339140447999,0.0140707829093321,-89.0739245277542,-130.9387450793269
2946.705073436886,0.01496881084263729,-83.33565932027405,-129.3761672527824
2972.29125834637,0.01455722057168345,-81.65512849646635,-121.8993887459888
2998.099607619751,0.01500652913998586,-83.4119949133801,-127.1516155485334
3024.132050306029,0.01353050005718689,-84.94652445107234,-97.21935427791071
3050.39053220411,0.01505761867970403,-84.17089123432137,-114.600289034575
3076.877016008233,0.01402823006170602,-91.36136661062523,-141.002655798518
3103.593481454674,0.01399352807486371,-83.04513657039453,-142.0253198625858
3130.541925469724,0.01425107126423916,-84.56499643169485,-149.5093655229304
3157.724362318939,0.01396623070520984,-84.24206679677891,-140.0467172767232
3185.142823757715,0.01366909573044574,-83.08157544710367,-137.2879375065139
3212.799359183138,0.01333259929002945,-81.39320466114847,-116.1974466128155
3240.69603578717,0.01282254611853038,-80.95195200673162,-125.7522225206498
3268.834938711164,0.01313162134626327,-81.47922240801731,-138.8249901869023
3297.218171201719,0.01326202118252399,-86.58694956282619,-157.4112007132957
3325.847854767869,0.01429124382830856,-86.32046739655179,-171.9311160413391
3354.726129339698,0.01339869745901629,-85.27291968697354,-176.6774116029613
3383.855153428236,0.01341194009076336,-83.70404196802907,-173.2710972859468
3413.237104286842,0.01329595362922293,-83.88460287421429,-109.0860831618422
3442.87417807392,0.01341853663918592,-85.04032109194264,-102.9361394378393
3472.768590017064,0.0125626898431583,-86.19159835906888,-127.8283576761345
3502.922574578674,0.01211604110233243,-85.77566302534942,-115.2849824574794
3533.338385622919,0.01343498520885117,-85.72843301316755,-147.3407561118333
3564.018296584244,0.01257523339727544,-84.08738322071372,-149.2382863196274
3594.964600637279,0.0133312485655357,-81.86850217441329,-139.8444845655104
3626.179610868235,0.01162449595392011,-91.55134789705374,-145.5072445309567
3657.665660447833,0.0133224961328106,-84.14406904829228,-133.6857481104699
3689.425102805644,0.01328033640886575,-83.54066979492637,-162.7520546137205
3721.460311806039,0.01280992625893359,-81.94151380393988,-123.6439170923266
3753.773681925607,0.01159351317940318,-82.24781359892677,-166.108682434418
3786.36762843213,0.01190896898113467,-85.45242903568334,-120.5997315140332
3819.244587565121,0.0114314823926252,-85.45006094047682,-127.6830172020698
3852.407016717901,0.01232398915873642,-87.46951903103124,-122.2305283504493
3885.857394621303,0.01245547910608606,-87.02860906204114,-150.8909194355812
3919.598221528932,0.01160382211200305,-90.01225514305952,-145.404994556988
3953.632019404046,0.01308277489562157,-89.56207436186583,-87.7932928524688
3987.961332108067,0.01156259979429881,-83.32685886438215,-119.6614300894332
4022.588725590706,0.01139291834475487,-84.93272403386725,-143.2856975475075
4057.516788081781,0.01210267100137856,-83.62171522668248,-150.5660825378333
4092.748130284653,0.01172197696380316,-80.356587500914,-111.1089539444833
4128.285385571376,0.01105241629453154,-81.83231264780531,-117.5627482341184
4164.131210179521,0.01137147985318103,-82.48047777128663,-121.7744251703236
4200.288283410725,0.011123839131426,-87.34799721259091,-123.289877934012
4236.759307830935,0.01035197576274233,-79.82970047896183,-140.9795055514567
4273.547009472456,0.0110772926715909,-83.14931419662672,-139.7651186412659
4310.65413803765,0.0113115997403613,-82.95114205683331,-153.3993857205119
4348.083467104513,0.01079172443780426,-85.21150774138873,-145.8391919442368
4385.837794333964,0.01082670550390188,-89.7974352488115,-99.40864083679719
4423.919941678942,0.01103636389144182,-80.75133620406888,-124.4584793612029
4462.332755595384,0.01053674365799877,-79.38694884723125,-131.4461533761766
4501.079107254915,0.01153252954308555,-86.4863272357578,-133.7548826601023
4540.161892759511,0.007561421302654837,-89.66390500310033,-136.642927331315
4579.584033357946,0.01017646231245608,-86.51256046013171,-138.7853904085742
4619.348475664124,0.01043138494222564,-83.72157383863852,-104.2609115504439
4659.458191877374,0.01045870951384786,-86.0819875947913,-134.8494226228854
4699.916180004545,0.01013144602304851,-83.87428601385201,-147.9687311597308
4740.725464084141,0.009601761403955899,-84.28226605814558,-146.2136460004497
4781.88909441233,0.009658097973778968,-87.12442170995503,178.7154173179267
4823.410147770946,0.01103615135915342,-80.80559274333555,-129.0538517322082
4865.291727657467,0.008672050787378947,-80.42933148633905,-136.8457598473059
4907.536964516966,0.01028200493889984,-85.32809260031699,-170.5302380771796
4950.149015976125,0.01103481998733292,-83.71694794791384,-163.20340934201
4993.131067079237,0.006900036159259427,-79.7351724449947,-119.4158186345501
5036.486330526274,0.009533420840334929,-80.46120016381211,-122.5978890805277
5080.218046913028,0.009930608618363286,-86.75010114535485,-135.9167522102759
5124.329484973304,0.007427253991344504,-92.16607685443437,177.165716986294
5168.823941823282,0.01071359473409742,-80.07139245870094,-124.7796026781619
5213.704743207931,0.01052174929314623,-80.89312458118707,-128.436621699419
5258.975243749603,0.006126128603282245,-83.21158147150945,-153.1127208859378
5304.638827198777,0.01037540519049185,-82.78392958578202,-162.1563544084767
5350.69890668696,0.009990540324503092,-91.21632338229239,-138.9391059736354
5397.158924981825,0.006796571611684838,-78.42198850551448,-138.5267430526462
5444.022354744549,0.008899613173159441,-80.82846870754005,-150.6309506118595
5491.292698789329,0.009872131659316675,-83.84262028521044,-151.1697714717072
5538.973490345252,0.006921381400336056,-87.41316350890554,-157.0407853819899
5587.068293320367,0.009869679498292769,-81.13628514363646,-138.4402700623059
5635.580702568049,0.009778807762902885,-81.69972520440777,-177.5583557879856
5684.514344155757,0.00928394580076872,-85.91213746373282,-150.0170864163424
5733.872875635986,0.0007902645468088425,-81.90353813162159,-140.9639601245092
5783.659986319711,0.009294937401872332,-84.33073978346711,-170.8915578925894
5833.879397552121,0.009333427897419797,-90.38428132462441,-173.2545803589884
5884.534862990779,0.004372520168346269,-87.54218002835464,-155.9578807954461
5935.630168886185,0.009344269576617131,-79.41880602476988,-151.8572944627655
5987.16913436477,0.009222540812431474,-89.60595877780983,-168.6677308230643
6039.155611714382,0.006960104937460905,-81.15668348136106,-141.4598855756898
6091.593486672206,-0.002148885577316126,-83.1031931759519,-124.2115161788968
6144.486678715213,0.008439574608531404,-79.69565566860743,-172.7410966705732
6197.839141353125,0.008580372489065376,-82.17209273030747,-155.3427156680805
6251.654862423894,0.005216067540872856,-85.68929316087917,-149.3206557447623
6305.937864391813,0.00786073573814274,-84.87499688992185,-170.0313982962091
6360.692204648153,0.008539052933864802,-82.35633324136431,-117.4083024174932
6415.921975814435,0.008199212082022572,-86.46506054778426,-150.741824209341
6471.631306048344,0.001290815471438975,-80.17484504185543,-154.7415740400511
6527.824359352252,0.007643321396777068,-85.49145772621236,-157.8599876151664
6584.50533588453,0.008308253198359546,-84.085128204605,-125.8697661237946
6641.678472273421,0.007862548625235501,-84.20747743000743,179.3803777068132
6699.34804193372,-0.002481740686442826,-77.8620582824889,-152.3765153968129
6757.518355386231,0.006940021944355224,-81.62554129900833,-147.0141890604915
6816.19376057989,0.008067631230359905,-83.36270341866978,-124.3824585207055
6875.378643216841,0.006736086090867437,-86.41249346112193,-146.9071873848735
6935.077427080169,-0.004341975777635601,-81.3479379186156,-134.6125329689544
6995.294574364578,0.007716496928565103,-78.33414078632515,-104.3066913906818
7056.034586009945,0.008033350934561711,-86.79092076275751,-158.8540660372349
7117.302002037697,0.006270364215845686,-83.02769150532397,-139.3384570533093
7179.101401890218,-0.003524347264697481,-80.76169683919193,-130.1134665689983
7241.437404773083,0.008209552061722835,-80.46864861732067,-112.5355484866865
7304.314670000334,0.007713089009106208,-83.86459809801393,-163.7429113350235
7367.737897342767,0.008056590945681914,-87.23095050533878,-153.027008604865
7431.71182737919,-0.0008386980981753512,-80.51221723815779,-144.5570605545112
7496.241241850772,0.00188465192208775,-85.71996361872803,-103.1512648055906
7561.330964018458,0.007005599253001849,-88.00667228259557,99.16846628205485
7626.985859023452,0.008306500542688956,-85.54565202354225,-89.45354225384798
7693.210834250913,0.003452361182803691,-83.67753260965563,-125.6435488334982
7760.010839696725,-0.004151643594891759,-89.74473757641624,163.9986290931959
7827.390868337496,0.007860404301839848,-83.31358540433585,-75.27344594578091
7895.355956503759,0.008501781770208631,-84.3822236925684,-93.33605662119061
7963.911184256391,0.006252819455983502,-81.31867063436206,-63.21718355064416
8033.061675766364,-0.001990058737127229,-79.32650202895042,-54.29917427423959
8102.812599697723,0.002698327438904408,-77.85261151462019,-53.91391552211579
8173.169169593927,0.007773256240226836,-84.65620565167364,-58.70081592744359
8244.136644267543,0.008479215613345626,-77.27388319777421,-19.26636320246399
8315.720328193274,0.005849007398247845,-74.90705828826583,-53.92893326295329
8387.925571904532,-0.006862985919213904,-73.8868277164853,-22.50225042216508
8460.757772393279,0.004681138665449115,-73.66382131173459,-35.25254118095482
8534.222373513443,0.007070725389947345,-71.01053691328556,-36.32818137809744
8608.324866387869,0.008421013611350657,-70.27268434845608,-34.66893864006837
8683.070789818677,0.005571578725686402,-70.54082700125252,-34.72893112705456
8758.465730701348,-0.006910001860426323,-69.41688533255015,-36.86490927066156
8834.515324442249,0.006035698276693072,-68.08116494793049,-39.5721670391401
8911.225255379859,0.007817108859255269,-66.62421284821255,-42.26364586195473
8988.601257209695,0.008204740094633152,-65.8705064265945,-43.47462469948513
9066.649113412799,0.005836150804930615,-63.919834297482,-41.42142061542167
9145.374657688128,-0.006115031692923906,-63.28441354234069,-41.10937120655082
