#Digilent WaveForms Network Analyzer - Bode
#Device Name: Discovery2
#Serial Number: SN:210321A35FCC
#Date Time: 2019-11-27 17:46:38.778
#Start: 1000 Hz
#Stop: 1e+06 Hz
#Steps: 800
#Wavegen: Wavegen1
#Amplification: 1 X
#Settle: 10 ms
#MinPeriods: 16 
#Channel: Channel 1
#Range: 5.42537 V
#Offset: 0.000183761 V
#Relative: no
#Channel: Channel 2
#Range: 5.47028 V
#Offset: -7.92091e-07 V
#Relative: yes

Frequency (Hz),Channel 1 Magnitude (dB),Channel 2 Magnitude (dB),Channel 2 Phase (*)
1000.000000000001,0.02537543341187122,-45.27098981230742,176.4102431470702
1008.682981252564,0.02202378827874487,-45.16107656346698,174.7890166551925
1017.441356668559,0.0258602421417564,-45.28671352542625,172.6672367760873
1026.275780894095,0.02250013669300781,-44.79513383578121,177.6318497186775
1035.186914259556,0.02599567316981284,-45.13825729364637,-179.7715641729529
1044.175422828971,0.02002810662258904,-44.50199304961296,178.3754807676402
1053.241978449782,0.02898352377430843,-44.31421408312499,178.5711590195164
1062.387258803074,0.01784236406705523,-43.9146271998651,178.5305875226564
1071.611947454223,0.02791627109233613,-44.15726011571434,178.5692388892716
1080.91673390399,0.02246093637730659,-43.28125857247368,177.7323237601361
1090.30231364006,0.02163296659771694,-43.55445229509015,178.6829897370303
1099.769388189022,0.02199163073006913,-43.03695121048524,176.3907459600242
1109.31866516881,0.02419740697668438,-43.4780490756907,-178.3827988619377
1118.950858341589,0.02424545113182095,-43.01076632168621,177.4712548812437
1128.666687667108,0.02184170734207938,-42.74662352983965,178.7017375258056
1138.466879356514,0.02103801554529793,-43.31675223316936,174.9454569429384
1148.352165926631,0.02780219269721276,-42.54811938975824,176.9903725858211
1158.323286254712,0.01848447199077502,-42.42504380755095,177.6304074356399
1168.380985633668,0.02754916108708132,-42.39761954742675,177.2708913877566
1178.526015827776,0.02941070582764173,-42.39813086669433,178.4474596726925
1188.759135128866,0.01994159241030153,-42.02135408659995,175.9384172807493
1199.081108413004,0.02080367790111466,-41.88598306805572,177.3681794688927
1209.492707197656,0.01936186973407169,-41.57092893419409,173.6760194670647
1219.994709699364,0.02358318552107747,-41.14170205200057,175.7573187225658
1230.58790089191,0.02251360127202129,-41.36001734110792,178.1062786250556
1241.273072564985,0.01272938079794827,-40.94693955083368,177.6268465141525
1252.051023383379,0.02966397331017152,-41.2255095729083,178.7632321359557
1262.922558946667,0.01879840548936602,-40.44865197851263,177.3354865779818
1273.888491849441,0.01987108398585664,-40.77012991778123,177.5741379105271
1284.949641742025,0.02454694118470172,-40.72825837725432,176.7256978945672
1296.106835391758,0.02053091902908153,-40.77151110851698,177.4630204965771
1307.360906744785,0.01610388228596465,-39.92282114773397,177.8157760910626
1318.712696988382,0.02289292063275982,-39.98128970617473,178.4950335894914
1330.163054613849,0.02193945837737025,-39.94990065552444,176.5311867810551
1341.712835479913,0.01686487237909794,-40.00647351458043,179.6926526199057
1353.362902876708,0.02270869118535394,-39.83212495882506,178.3312153442357
1365.114127590301,0.01539888701700974,-39.42576635016241,177.2677247476052
1376.967387967775,0.02040599087529382,-39.36755513692933,177.2268197258676
1388.923569982891,0.03013241008116056,-39.4702226041296,174.9332424093937
1400.983567302295,0.02449129453039798,-39.41247347251933,177.168498137257
1413.148281352329,0.02657721846196826,-39.11221007607813,176.4724135136633
1425.418621386403,0.0177461849569639,-38.68899487912844,175.3655275305933
1437.795504552955,0.02064601539156476,-38.71258195777133,175.8198752656782
1450.279855964008,0.02347849737693376,-38.23391927669795,176.2626219931434
1462.872608764313,0.02354037545884231,-38.13268762241408,177.0072605861145
1475.574704201101,0.02312371937295201,-38.46659601396858,175.2990585560075
1488.387091694435,0.01844924435922599,-37.85849636809426,176.4344478799519
1501.310728908174,0.01594685485721183,-37.89994178910695,178.3078486880507
1514.346581821555,0.02653022500290117,-37.73805873868399,178.2085169810084
1527.495624801396,0.01836487459768826,-37.35490716067073,178.017529313845
1540.758840674918,0.03139515167293795,-37.34588630883712,176.6692293666251
1554.137220803218,0.02512854909197453,-37.43672378248116,177.2034120023266
1567.631765155362,0.02598249953511992,-37.07605296567204,177.6817728546553
1581.243482383128,0.024863817517718,-36.82225277454309,176.1476895184152
1594.9733898964,0.01562602051456975,-36.81298781406422,176.5592843070196
1608.822513939205,0.0287275340735025,-36.53774331905319,176.6749498729766
1622.791889666442,0.01499725961642679,-36.40623489875593,175.7617639912957
1636.882561221226,0.02010713187378026,-36.28179205908615,176.8276211146263
1651.095581812957,0.0184350505666003,-36.10695656805989,176.3771310146834
1665.432013796029,0.02484146104213495,-36.09053314470898,177.3472418345961
1679.892928749236,0.02268022690631158,-35.80719970865934,175.8765830417007
1694.47940755588,0.02369958592613909,-35.58707497996306,175.0009760482667
1709.192540484542,0.02907644705014522,-35.44979618899282,176.0617070938202
1724.033427270589,0.01786455938490732,-35.27432993444767,175.8060729718198
1739.003177198373,0.0228789408547606,-35.11588788381248,176.4923387639109
1754.102909184131,0.02222939947922357,-35.09379653846436,177.1687077034478
1769.333751859645,0.01934239215097776,-34.83515137207237,174.6868171070298
1784.696843656568,0.02213870436202049,-34.84489045277329,176.6966149158033
1800.193332891546,0.02061909044856381,-34.7053122519654,177.5321085104151
1815.824377852032,0.02754098373500598,-34.3418030651075,176.8763430657191
1831.591146882867,0.01579063324734257,-34.28918800622365,176.6987688187113
1847.494818473613,0.02423098799206551,-33.99065831872299,176.1234963275353
1863.536581346626,0.02910405105486035,-34.13881821826058,177.218856381996
1879.717634545924,0.0229455958591907,-33.73350564935306,176.0371303286762
1896.039187526798,0.01520308829608615,-33.62180488936423,176.5369965821853
1912.502460246217,0.02660427862448149,-33.45887696642949,175.9643164114046
1929.108683254017,0.02352934567705564,-33.37131762619811,175.4023837959692
1945.859097784868,0.01757864638484443,-33.30955771178155,177.877856274821
1962.754955851062,0.02361813859631696,-33.02860514945168,175.2748742981952
1979.797520336091,0.01816063873704714,-32.82801939593663,175.3842456353105
1996.98806508904,0.01636798902416857,-32.69330232377124,176.4817737429217
2014.327875019799,0.02048411321116405,-32.49595964219723,176.3587322147072
2031.818246195113,0.01911842799567352,-32.44334210040388,176.1923881354351
2049.460485935438,0.01790863627867615,-32.29371728370549,176.4902231739437
2067.255912912686,0.0191820731277664,-32.11884646490848,176.8808182544115
2085.205857248756,0.01752980702509219,-32.04436968660272,175.2926037014686
2103.31166061498,0.01913304194259189,-31.6553974345803,175.0238453214238
2121.574676332399,0.02992843130688893,-31.57625550670051,176.3097701436398
2139.996269472903,0.01825478738036176,-31.46427917925372,176.0457847295561
2158.577816961293,0.02686478803917206,-31.36605075997003,176.5317859436358
2177.320707678165,0.02362654899667798,-31.13642289542549,175.4661593044746
2196.226342563751,0.02508557831822611,-30.99645611951344,176.0617482372496
2215.296134722619,0.02148283062194146,-30.99062466545891,175.7521780680312
2234.531509529288,0.01270170722237307,-30.65986826834215,175.9248838806591
2253.933904734793,0.02030687509115388,-30.54827820933217,175.6221510290173
2273.504770574121,0.0180056343485322,-30.39860518962897,176.1566042470715
2293.245569874628,0.01718023710574436,-30.28362405526227,175.4254383490323
2313.157778165372,0.01329447601775925,-30.18867544079306,176.1372796364264
2333.242883787401,0.02043953574436524,-29.96175734347052,175.736156909249
2353.502388005005,0.01639207200040015,-29.89901083350558,175.6663382271696
2373.937805117914,0.0257744555470377,-29.74163358347077,174.758175688534
2394.550662574503,0.01848562841134806,-29.55426780629563,175.7198711788493
2415.342501085949,0.016593490142263,-29.36188248521021,175.1545482225667
2436.314874741396,0.02842973720192818,-29.23292686425093,174.8280424952541
2457.469351124118,0.01943972218678378,-29.10268443762837,175.7870907562506
2478.807511428676,0.01840233652889033,-28.88631452162157,175.5194537256621
2500.330950579123,0.02193492706326707,-28.7427055236269,175.6728439919756
2522.041277348204,0.0236474213535144,-28.55670056711081,175.6845418408562
2543.940114477607,0.02125566208023762,-28.52905049938816,175.7351721393018
2566.029098799259,0.01403529416101901,-28.24353208927472,175.462170137207
2588.309881357666,0.01463876662484195,-28.16276025215586,175.1820830750554
2610.784127533315,0.02297922806588854,-27.9846538599761,175.6095307041036
2633.453517167177,0.0248571278667906,-27.74842467427355,174.9458247457798
2656.319744686235,0.01451689153569106,-27.58384363919592,175.2332643509461
2679.384519230158,0.02082197684439231,-27.50019782463766,175.3546397647908
2702.649564779043,0.01630279222559194,-27.35318454600982,175.1914928684184
2726.116620282263,0.01709476247478772,-27.15564737364589,175.1633128986613
2749.787439788477,0.01802451749500045,-27.03343728204024,175.1851946702636
2773.663792576692,0.02286421495650833,-26.85318153645816,174.9347940336407
2797.747463288548,0.007740615704850276,-26.70753798097541,175.0092581029884
2822.04025206169,0.01736600289374372,-26.5426024579006,175.2717229272681
2846.543974664316,0.0208532693674705,-26.42591329711216,174.8691170105767
2871.260462630924,0.01960646893270381,-26.26329901864966,174.6381273309639
2896.191563399173,0.02065467187781968,-26.04327919673201,174.824133047179
2921.339140447999,0.02665531896694813,-25.97659751554128,174.5549331157017
2946.705073436886,0.01554169698793621,-25.78581593573131,174.8727859809734
2972.29125834637,0.02145428686797021,-25.58785768417631,174.6338589093906
2998.099607619751,0.009272328841641364,-25.46137959323861,174.9654397636732
3024.132050306029,0.02274609984494725,-25.29534069339004,174.6788317234302
3050.39053220411,0.02538605974838897,-25.13230784685092,174.5213722181568
3076.877016008233,0.01946467075096067,-25.03968813388783,174.3596166153376
3103.593481454674,0.02017267086121829,-24.81305562110552,174.7323942179003
3130.541925469724,0.02237187644621368,-24.66736600700512,174.2596664511859
3157.724362318939,0.02067963409924453,-24.50983626364725,174.6571964586298
3185.142823757715,0.0213086920665206,-24.30681388367165,174.5226233734851
3212.799359183138,0.01368483061720648,-24.17915990609032,174.0119085794151
3240.69603578717,0.01307303227428653,-24.03966512689454,174.4027879851211
3268.834938711164,0.02219881367443854,-23.92612117211497,174.3012934840897
3297.218171201719,0.01784855913643179,-23.72476649032552,174.4591670349689
3325.847854767869,0.02079690091014172,-23.56250596165754,174.4394119774986
3354.726129339698,0.02368742580287984,-23.40520006711706,174.2049748984453
3383.855153428236,0.02734006263768561,-23.25137269216921,174.1603661229101
3413.237104286842,0.009193517250925822,-23.0741762136825,174.2338448747886
3442.87417807392,0.02119374690528142,-22.95280842706784,174.2048660618453
3472.768590017064,0.01257350962956526,-22.76428196747886,174.0955157673731
3502.922574578674,0.01791005736938354,-22.60327351063518,173.9379307731957
3533.338385622919,0.02483822665859666,-22.44306108793311,174.0237012435846
3564.018296584244,0.01564777440157381,-22.28909277435844,173.8019883589012
3594.964600637279,0.01925350467758424,-22.09610516171319,173.6167653517554
3626.179610868235,0.008191133999558502,-21.95141801250436,174.0535797462696
3657.665660447833,0.01210027089254727,-21.77973663972425,173.6081329359635
3689.425102805644,0.01983087598920543,-21.66549475812637,173.8429421672311
3721.460311806039,0.01872497044292129,-21.48287268476635,173.6997372572257
3753.773681925607,0.02147354452884504,-21.33453030203811,173.6390900308901
3786.36762843213,0.02414481099828226,-21.15675498620497,173.6521100732165
3819.244587565121,0.01096669187149119,-21.00072977154067,173.2658638702827
3852.407016717901,0.01777217553061068,-20.86228536132166,173.2685567271005
3885.857394621303,0.0214148157711094,-20.69422625564697,173.2070237633634
3919.598221528932,0.01435291432742933,-20.53008137209885,173.0986659496411
3953.632019404046,0.02224745108977746,-20.34313480189967,173.3462239751335
3987.961332108067,0.01881767517503483,-20.22017574123108,173.0333206789739
4022.588725590706,0.01642880327374269,-20.02352388321529,173.1434970540861
4057.516788081781,0.01614812596379644,-19.87739408181821,172.9617225131215
4092.748130284653,0.01174940447655771,-19.72901952468967,173.0595199257317
4128.285385571376,0.01865825827259905,-19.54236701461924,172.9917415844189
4164.131210179521,0.01387517829689138,-19.38743422556692,172.9334177891766
4200.288283410725,0.01463241404764134,-19.21734431298405,172.7575826232504
4236.759307830935,0.01795393515231269,-19.08779471711171,172.7269467750899
4273.547009472456,0.01181624135657389,-18.92491798884245,172.7746942462766
4310.65413803765,0.01850742310882136,-18.77292761541899,172.5956359347015
4348.083467104513,0.007817171737782885,-18.59081468361202,172.6132261806253
4385.837794333964,0.01771679645865932,-18.40903034735344,172.3675021428266
4423.919941678942,0.01721423240689085,-18.25578192149207,172.4165374446075
4462.332755595384,0.01805625659243267,-18.08265356427516,172.0134029483363
4501.079107254915,0.01461576983319426,-17.90660409462846,172.1876749081334
4540.161892759511,0.0143500219916921,-17.75160323110856,172.2378214239855
4579.584033357946,0.01604016440291924,-17.60998375908801,172.0361141608097
4619.348475664124,0.01295243554347126,-17.39921203332185,172.1053956739303
4659.458191877374,0.02187581389640859,-17.24722369342139,171.7071360677091
4699.916180004545,0.02239386995600498,-17.09643662091479,171.8019290296158
4740.725464084141,0.01387638545127486,-16.93793406060389,171.6142664588938
4781.88909441233,0.0123367738868711,-16.76033181045776,171.6608866893955
4823.410147770946,0.01054141700287103,-16.58883126950785,171.6941352849761
4865.291727657467,0.01545382182138841,-16.4240654057941,171.5077356247557
4907.536964516966,0.01369390990008883,-16.26189083253952,171.3945970888594
4950.149015976125,0.02127233878479497,-16.08355348858746,171.3674758316965
4993.131067079237,0.01229795357907249,-15.9368942097218,171.4469631884514
5036.486330526274,0.02159846737339981,-15.76788003745471,171.0524722786215
5080.218046913028,0.01415388020004511,-15.58658298748562,171.2131930462438
5124.329484973304,0.005067972164673149,-15.42337577187586,170.8967866844611
5168.823941823282,0.01713940473201744,-15.24786321865961,170.8482057373282
5213.704743207931,0.01269846574282798,-15.07444028064945,170.7783931739719
5258.975243749603,0.007904855857550649,-14.87609500851081,170.7695284758873
5304.638827198777,0.01301228330137395,-14.73720947554748,170.640015804505
5350.69890668696,0.01381374567060706,-14.555143645514,170.5647212159836
5397.158924981825,0.009078526832620787,-14.40295949558438,170.5107531221935
5444.022354744549,0.01246141982547195,-14.21226793815252,170.1882899033848
5491.292698789329,0.01209434751469024,-14.05957267134634,170.1965697832109
5538.973490345252,0.006050640985714788,-13.86878484240219,170.1152761107485
5587.068293320367,0.01548952097957702,-13.70475765410715,170.0443431624871
5635.580702568049,0.0177861097273054,-13.52747513518698,169.9047234538956
5684.514344155757,0.02011276743962911,-13.36550973434994,169.8568216558041
5733.872875635986,0.0009347450322308899,-13.18773138368562,169.6915471171551
5783.659986319711,0.006475432161831286,-13.01709476894618,169.5681493826913
5833.879397552121,0.01359751662213178,-12.83920141688211,169.4525344631463
5884.534862990779,0.004242198575067325,-12.66634051104176,169.4019180846011
5935.630168886185,0.01114546302849382,-12.48514121341817,169.2099531280977
5987.16913436477,0.0119981945434524,-12.3127411787605,169.1909946951208
6039.155611714382,0.01040175971929869,-12.13503556102172,169.1107227956993
6091.593486672206,0.002623874905282433,-11.94821190502449,168.9064223583253
6144.486678715213,0.006038953085056552,-11.77108007904286,168.7884979054485
6197.839141353125,0.01525749101457427,-11.59094689043663,168.6817097122924
6251.654862423894,0.008552596632730875,-11.42379549225476,168.5234160585125
6305.937864391813,0.01524452976703091,-11.23268475008057,168.4676982201423
6360.692204648153,0.009491838920836186,-11.04102212386564,168.3628312974559
6415.921975814435,0.01447325468704085,-10.87619351008171,168.1524995969204
6471.631306048344,0.004464168575829084,-10.67387491993884,168.1066165793482
6527.824359352252,0.01105229524216396,-10.49138740888921,167.9154412814006
6584.50533588453,0.01545841658026611,-10.32390846780508,167.7367373165412
6641.678472273421,0.008787773960672797,-10.12075148282856,167.5954587390281
6699.34804193372,0.008379118270317827,-9.957867312022534,167.4075930882036
6757.518355386231,0.01696245376720837,-9.75169473428792,167.2740182195683
6816.19376057989,0.01162627104352426,-9.583351727856936,167.0745838830293
6875.378643216841,0.009458083860151569,-9.393275625976722,166.9431803757447
6935.077427080169,-0.00469235635887961,-9.203015681671475,166.7169663521633
6995.294574364578,0.01234504252605413,-9.012591321717569,166.6963210500149
7056.034586009945,0.01395900158580197,-8.819954529194881,166.4086357438319
7117.302002037697,0.006996687937160293,-8.630747251979715,166.3106910903759
7179.101401890218,0.007187703459651302,-8.435423509506821,166.1635831544541
7241.437404773083,0.009295314706972448,-8.241995730585614,165.9034830643825
7304.314670000334,0.01043233310206743,-8.048844330174346,165.7433572828984
7367.737897342767,0.01136289637142131,-7.849860989132461,165.5545605346834
7431.71182737919,0.003542446549109331,-7.66113485387636,165.3795936460431
7496.241241850772,0.007291810555074238,-7.458446438564215,165.1965761150315
7561.330964018458,0.01733745977613579,-7.270040405841222,165.0492953717319
7626.985859023452,0.01680826624349045,-7.071630676275465,164.7337719792872
7693.210834250913,0.006749583215621073,-6.867783096680963,164.5943037988749
7760.010839696725,-0.001117045205856595,-6.659225822238247,164.366265010571
7827.390868337496,0.007100801831793972,-6.475054277779765,164.1039310084862
7895.355956503759,0.0127193297978282,-6.260947387585988,163.8460389894044
7963.911184256391,0.01225841797754536,-6.061571875275334,163.6845670867519
8033.061675766364,0.005707932990992846,-5.853077684427035,163.4617548530143
8102.812599697723,0.004193489716089478,-5.647015518178722,163.1846278246273
8173.169169593927,0.01189908924559241,-5.442174178138841,162.9741290998773
8244.136644267543,0.01388498169287583,-5.232266335816872,162.6937278351275
8315.720328193274,0.01059607467762188,-5.018116803606729,162.4178363851432
8387.925571904532,0.001437456538301488,-4.816599998307875,162.1741194944112
8460.757772393279,0.01165960391236887,-4.584194341886354,161.8473738679873
8534.222373513443,0.00771579920426259,-4.384884192624511,161.6352844375136
8608.324866387869,0.01442688099632847,-4.164941551404075,161.3141149157649
8683.070789818677,0.002387268760242928,-3.946693801636949,161.019651828072
8758.465730701348,-0.006332052680989792,-3.725932920081604,160.6821301649013
8834.515324442249,0.007993495287248359,-3.503869902246251,160.3339528466661
8911.225255379859,0.009735881419136269,-3.282958520177322,160.0192205905016
8988.601257209695,0.01188315111752256,-3.064537820765875,159.6732699058883
9066.649113412799,0.004560022527053504,-2.833615235620576,159.3261003447247
9145.374657688128,-0.004462514954265959,-2.604403281265614,158.9463746266126
9224.783774388505,0.004815484049324037,-2.383734627138668,158.5891854829196
9304.882398960464,0.01061023553675496,-2.145211790714025,158.1773081521763
9385.67651838794,0.01697775389383728,-1.919707064229561,157.8034880580068
