#Digilent WaveForms Network Analyzer - Bode
#Device Name: Discovery2
#Serial Number: SN:210321A35FCC
#Date Time: 2019-11-27 17:36:03.342
#Start: 1000 Hz
#Stop: 1e+06 Hz
#Steps: 800
#Wavegen: Wavegen1
#Amplification: 1 X
#Settle: 10 ms
#MinPeriods: 16 
#Channel: Channel 1
#Range: 5.42537 V
#Offset: 0.000183761 V
#Relative: no
#Channel: Channel 2
#Range: 5.47028 V
#Offset: -7.92091e-07 V
#Relative: yes

Frequency (Hz),Channel 1 Magnitude (dB),Channel 2 Magnitude (dB),Channel 2 Phase (*)
1000.000000000001,0.01888378137013286,-31.90766824213748,87.64777871781885
1008.682981252564,0.01874044463992484,-31.83540318293823,87.6750492173731
1017.441356668559,0.01889570679319889,-31.76756409546842,87.67703252910442
1026.275780894095,0.0188803236115716,-31.68131265186864,87.62374098078374
1035.186914259556,0.01876476682668024,-31.60074624554692,87.61901862207192
1044.175422828971,0.01964085676153152,-31.52957006851954,87.62480083385964
1053.241978449782,0.01875260368943862,-31.45602630124518,87.65646756930482
1062.387258803074,0.01802162680593314,-31.37668512487606,87.59441932943258
1071.611947454223,0.01924988165784711,-31.30690999798086,87.52576190403052
1080.91673390399,0.01866281865482788,-31.23631275203431,87.56306401755728
1090.30231364006,0.01892120003038763,-31.1568517795271,87.52205469384828
1099.769388189022,0.01870119078779059,-31.08209652848574,87.45140032505519
1109.31866516881,0.0180737167435417,-31.01627172320697,87.45879256706795
1118.950858341589,0.01931783677523951,-30.9368523698354,87.45257205074444
1128.666687667108,0.01850983239621106,-30.85579507773607,87.45022353411184
1138.466879356514,0.01843651353926131,-30.78013379761245,87.48051178520969
1148.352165926631,0.01940077173313919,-30.69957980851708,87.40373844069245
1158.323286254712,0.01858224632921023,-30.63059938655098,87.42891071226705
1168.380985633668,0.01813595419574497,-30.56193040733694,87.37959290009501
1178.526015827776,0.01848611175612141,-30.48286662530948,87.40272383781314
1188.759135128866,0.01850324478783749,-30.40735244591698,87.32274307002712
1199.081108413004,0.01863197959428366,-30.32113122092088,87.40314465846224
1209.492707197656,0.01890498768274573,-30.25470867679607,87.34907589504832
1219.994709699364,0.01865418216091187,-30.18025048058998,87.3130493457269
1230.58790089191,0.0185086341512488,-30.09714558002393,87.25029729604341
1241.273072564985,0.01893861808182428,-30.02431820332983,87.24433516648358
1252.051023383379,0.01910544609749987,-29.9487046274809,87.24359857064985
1262.922558946667,0.0181901360035331,-29.88019855425183,87.23352983948587
1273.888491849441,0.0188821995330913,-29.81219285632235,87.21466538564937
1284.949641742025,0.01846016092586636,-29.72833130518159,87.2634145292985
1296.106835391758,0.01852316226727901,-29.6442338947477,87.1381947570485
1307.360906744785,0.01815156248586028,-29.58483080808001,87.18070023168656
1318.712696988382,0.01828072513858483,-29.50322983036145,87.09734493879094
1330.163054613849,0.01748000732500373,-29.42762367629625,87.08092591084957
1341.712835479913,0.01812164255290834,-29.35307427198808,87.08211349375904
1353.362902876708,0.0183936141876443,-29.27680119422599,87.06350952754997
1365.114127590301,0.01809244594293655,-29.20765788648936,86.97220365635823
1376.967387967775,0.01760394254757181,-29.11799581129735,87.0788363543117
1388.923569982891,0.01881468269064698,-29.05155726940723,87.04485039746933
1400.983567302295,0.01767433719625311,-28.98102667728946,87.00828106816395
1413.148281352329,0.01854470004190406,-28.90895329815672,86.93993715897119
1425.418621386403,0.01881290430860336,-28.829242788767,86.89579642237631
1437.795504552955,0.01759868563883174,-28.75723017035687,86.9155266772695
1450.279855964008,0.01814086128591195,-28.68108725586101,86.89376950015026
1462.872608764313,0.01818634256921873,-28.6076893309117,86.86373354043712
1475.574704201101,0.0187078294359778,-28.53556786077924,86.81990267083424
1488.387091694435,0.01737215991418931,-28.45529519557978,86.83466611339125
1501.310728908174,0.01889959128920964,-28.37187110679008,86.78824148151631
1514.346581821555,0.01838513458255828,-28.30754904034182,86.8455798517017
1527.495624801396,0.01783690947065579,-28.23097333651484,86.73191455055439
1540.758840674918,0.01802469748457541,-28.15609222402678,86.73583761867832
1554.137220803218,0.01802775871632985,-28.08429124460018,86.7264647998137
1567.631765155362,0.01825167220103722,-28.01296661169587,86.71934966575428
1581.243482383128,0.01818644109204224,-27.93429066975578,86.67402712798651
1594.9733898964,0.01763414508114276,-27.86022904353736,86.65568464346552
1608.822513939205,0.01775069106407338,-27.78175953742846,86.62113540930639
1622.791889666442,0.01762873513638354,-27.71301330780042,86.66301300675798
1636.882561221226,0.01772916832509745,-27.64251526367275,86.6396388148537
1651.095581812957,0.01815661818854094,-27.56186668936976,86.58081813988592
1665.432013796029,0.01825624178140695,-27.49115821103253,86.54673582136293
1679.892928749236,0.01734610490159371,-27.41787298545045,86.51488386957982
1694.47940755588,0.01798964978319913,-27.33304920574584,86.50649681528118
1709.192540484542,0.01795588874400474,-27.26056679274318,86.48712679164589
1724.033427270589,0.0178071751092041,-27.1877616224889,86.43967728181859
1739.003177198373,0.01701451180513753,-27.11686829368693,86.43160621721566
1754.102909184131,0.01738984836024616,-27.04643029162037,86.38233778395045
1769.333751859645,0.01804731995159936,-26.97239817564432,86.34680828345394
1784.696843656568,0.01677292483932721,-26.89644679228002,86.31568739308818
1800.193332891546,0.01715138622996392,-26.81860238377531,86.28122185277022
1815.824377852032,0.01688636954874256,-26.74294805294558,86.28662592360575
1831.591146882867,0.0174732839153084,-26.66561476562918,86.28075550255505
1847.494818473613,0.01724601208278291,-26.59410512195764,86.2683143895365
1863.536581346626,0.01721615017552693,-26.51331514833929,86.24047540061873
1879.717634545924,0.01658177853374761,-26.44490990739124,86.1942955443391
1896.039187526798,0.01712688335985156,-26.37301374809544,86.16194940580095
1912.502460246217,0.01788675849326418,-26.30000637245655,86.13802985968414
1929.108683254017,0.0167096687484929,-26.21676677017568,86.09854145317611
1945.859097784868,0.01807682563342288,-26.15285691875287,86.07346477576499
1962.754955851062,0.01701558401535368,-26.07166014356014,86.03315987756201
1979.797520336091,0.0170246893134152,-25.99183267072792,86.02071328865431
1996.98806508904,0.01734782500668825,-25.92360550937645,85.97019517606944
2014.327875019799,0.01677913642638691,-25.85207108099814,85.96937050736508
2031.818246195113,0.01790364907326213,-25.7780764029538,85.92715790940802
2049.460485935438,0.01663414896218837,-25.70086987875291,85.94445587817617
2067.255912912686,0.01674935395981239,-25.62523287954388,85.9041593999042
2085.205857248756,0.01627413701497085,-25.5509322571427,85.8834899717511
2103.31166061498,0.0166325269648707,-25.47771065368261,85.76014119680016
2121.574676332399,0.01674453307289356,-25.39674769391653,85.77189085593093
2139.996269472903,0.01649172733758137,-25.32996434970926,85.76143628484635
2158.577816961293,0.01633176880403775,-25.25291186133679,85.73720096534437
2177.320707678165,0.01621615906349247,-25.18270531052476,85.73606935601593
2196.226342563751,0.01673910537891937,-25.10329331478949,85.61878135273929
2215.296134722619,0.0160230142415477,-25.02877222330854,85.62173356043239
2234.531509529288,0.01586174693262098,-24.95510570442127,85.61459114041628
2253.933904734793,0.01549381828074212,-24.87717005051871,85.5712838365129
2273.504770574121,0.01524910505221467,-24.80927251824157,85.51749691530318
2293.245569874628,0.015829296787736,-24.73417390388365,85.5082005976638
2313.157778165372,0.01656734270110759,-24.65620829974836,85.45317119022388
2333.242883787401,0.01522895854156698,-24.58364195831924,85.43878429097009
2353.502388005005,0.01591653647497467,-24.5014269024626,85.40811170217947
2373.937805117914,0.01539893940899107,-24.43039723382469,85.36204397730155
2394.550662574503,0.01597701312001613,-24.35750453409835,85.32144093596639
2415.342501085949,0.01480419377031907,-24.28521520207326,85.29274544595957
2436.314874741396,0.01676832824503646,-24.20577505396412,85.26006649942985
2457.469351124118,0.01471883611868728,-24.1365025322776,85.22143876161948
2478.807511428676,0.01586204640651524,-24.06424257358026,85.21670206477654
2500.330950579123,0.01701843702852628,-23.98785236325628,85.13192016215687
2522.041277348204,0.01609513769578534,-23.91616404958397,85.09171731048542
2543.940114477607,0.01464415984151916,-23.83850405368806,85.06411350129284
2566.029098799259,0.01682132021953078,-23.76592241199037,85.01491436994621
2588.309881357666,0.01612597163325401,-23.68923435574619,85.02751210605373
2610.784127533315,0.01548095189532312,-23.61842109403359,84.96134378450267
2633.453517167177,0.01631338817187839,-23.53800972090509,84.91894305988261
2656.319744686235,0.01537472044240316,-23.46893772411608,84.88159005892626
2679.384519230158,0.01515534278291706,-23.39087975847238,84.84399077045457
2702.649564779043,0.01597539006695065,-23.32431836666647,84.8211156575712
2726.116620282263,0.01466687502464635,-23.2498325052742,84.76547311048085
2749.787439788477,0.0146845911016558,-23.17715591077137,84.74134972247805
2773.663792576692,0.01437701267859446,-23.08958319995122,84.69976269898811
2797.747463288548,0.01470859483281538,-23.02098429875342,84.66390842267775
2822.04025206169,0.01515732017473605,-22.94279392026514,84.62708490123754
2846.543974664316,0.01452974459511823,-22.87314091721807,84.58190357628739
2871.260462630924,0.01472327519973849,-22.80058197617232,84.55577638506905
2896.191563399173,0.01478353351394123,-22.7226405230474,84.50787567920995
2921.339140447999,0.01530559683607765,-22.65256378125783,84.40104064012789
2946.705073436886,0.01448133398922578,-22.57576627282337,84.41689248059986
2972.29125834637,0.01405898571520454,-22.49891571059836,84.36895479833365
2998.099607619751,0.01391398519190588,-22.43364607532605,84.30893199397651
3024.132050306029,0.01479711432209919,-22.34909197671158,84.27992385395288
3050.39053220411,0.01456904708519264,-22.2799454902276,84.25056638204556
3076.877016008233,0.01476900096812251,-22.20636336106252,84.19272886279668
3103.593481454674,0.01494219042603107,-22.129075492858,84.14194632532568
3130.541925469724,0.01458014042421579,-22.05319204290752,84.10787702757264
3157.724362318939,0.0143435010110307,-21.98325067815023,84.04594297652487
3185.142823757715,0.01441654037281777,-21.90823915184176,84.01893582660742
3212.799359183138,0.01407930850332984,-21.83305785540338,83.95379386585361
3240.69603578717,0.01404980655982899,-21.753534716942,83.93267179600032
3268.834938711164,0.01362127940667972,-21.6864239583963,83.86190543984819
3297.218171201719,0.01365495470085084,-21.61227226448018,83.83688168787549
3325.847854767869,0.01432610594855441,-21.53781432812345,83.75591249811333
3354.726129339698,0.01444409703460716,-21.46031661371033,83.7171535476914
3383.855153428236,0.01378910390650317,-21.39077352250415,83.67360791148045
3413.237104286842,0.01444588572619993,-21.310651483151,83.63432382634238
3442.87417807392,0.01262106507039183,-21.23780605860961,83.5636157335102
3472.768590017064,0.01375495748241525,-21.16551117999682,83.52379242792006
3502.922574578674,0.01241530312656026,-21.09607699707603,83.47919164200016
3533.338385622919,0.01392729120106273,-21.02012001375709,83.41769649199654
3564.018296584244,0.01282738453467855,-20.94584113454725,83.37355062800214
3594.964600637279,0.01340223950320997,-20.86709117762461,83.33095455303737
3626.179610868235,0.01315987836528892,-20.79488531191355,83.26555674443553
3657.665660447833,0.01433200128300881,-20.72148858202759,83.22418458009794
3689.425102805644,0.01227654928086656,-20.65185587425008,83.16804359008381
3721.460311806039,0.0131578114197516,-20.57299660765116,83.11141770331545
3753.773681925607,0.01184139439529507,-20.50181965796169,83.07066989939065
3786.36762843213,0.01232676590681617,-20.42571228389497,83.01456803133092
3819.244587565121,0.01245102519833631,-20.35501252115352,82.94082594449139
3852.407016717901,0.01230162141647192,-20.28014616409999,82.89505093989786
3885.857394621303,0.01227894065323799,-20.2041978949636,82.8267583501671
3919.598221528932,0.01190111229885184,-20.13517134758296,82.77926562148106
3953.632019404046,0.01226320332001668,-20.05018093534208,82.73311467085222
3987.961332108067,0.01261678225188756,-19.98107571083112,82.69381406070244
4022.588725590706,0.01297650975702259,-19.91355458875439,82.61520111697484
4057.516788081781,0.01181757966785123,-19.83795295749153,82.56670896207505
4092.748130284653,0.0122780427882374,-19.76552384249212,82.47876038324171
4128.285385571376,0.01274568862224894,-19.68749786194346,82.42768624372596
4164.131210179521,0.01172667994398446,-19.61546097536478,82.36795651484795
4200.288283410725,0.01177733664638981,-19.54091595700504,82.32560629888088
4236.759307830935,0.01105089149195906,-19.46933830730663,82.27660160030344
4273.547009472456,0.01186402531667295,-19.39330855941854,82.19679892194895
4310.65413803765,0.01224663741316027,-19.32173983414349,82.11979963374961
4348.083467104513,0.01132437961484369,-19.24829836970863,82.07193547865532
4385.837794333964,0.01202268368363534,-19.17326788846576,82.00751211883411
4423.919941678942,0.01104029772160028,-19.09957582478406,81.95053343909677
4462.332755595384,0.01047272610657336,-19.02726276589237,81.87937465770381
4501.079107254915,0.01217086335881564,-18.9536451542746,81.82436005167082
4540.161892759511,0.007899702930838784,-18.879127704727,81.74615791137708
4579.584033357946,0.01151609706978236,-18.81040175560441,81.70271634516311
4619.348475664124,0.01103729721050834,-18.73284923761217,81.60891341336388
4659.458191877374,0.01020526409454733,-18.65705919677481,81.56055024950746
4699.916180004545,0.0112505756790189,-18.58764106703812,81.49692961048636
4740.725464084141,0.01009683885137495,-18.5142798193389,81.42477690464631
4781.88909441233,0.01049038115340935,-18.43978163366359,81.32474790863414
4823.410147770946,0.01171235898360044,-18.36456605434958,81.30047354547003
4865.291727657467,0.008992370881696781,-18.29398964837985,81.20618862117972
4907.536964516966,0.01006275045091279,-18.21673458067901,81.15554064091225
4950.149015976125,0.01132801493712847,-18.14071936927027,81.05507138154553
4993.131067079237,0.007388588303166613,-18.07392409902214,80.99493884861104
5036.486330526274,0.01082059869017666,-17.99878995836743,80.93383872557433
5080.218046913028,0.01022261525350697,-17.92360991114677,80.85769215374718
5124.329484973304,0.007378741670775031,-17.85078730166805,80.78803509157397
5168.823941823282,0.00986623164087843,-17.77769721210689,80.69465807725445
5213.704743207931,0.009706646248275637,-17.70543157192706,80.63227458130467
5258.975243749603,0.007122451201313679,-17.63329151992065,80.55720013898845
5304.638827198777,0.01014098780544509,-17.56184191360739,80.46433784708503
5350.69890668696,0.009343093903794612,-17.48662084156451,80.40239199588194
5397.158924981825,0.006093987322202529,-17.41220935459427,80.35067952446251
5444.022354744549,0.00908965901333275,-17.34159913627504,80.23192728016903
5491.292698789329,0.00955538162626338,-17.26996767397602,80.19072472747513
5538.973490345252,0.008604079114084414,-17.19648643927454,80.10968582196527
5587.068293320367,0.0097106714444006,-17.11920996366726,80.01406241979052
5635.580702568049,0.009019831035072277,-17.04862914171618,79.92805067123224
5684.514344155757,0.008894732452346831,-16.97626221364298,79.86561577198674
5733.872875635986,0.001028294309950591,-16.90180573414998,79.77721399264937
5783.659986319711,0.00957697094037338,-16.83330144480614,79.67997185847892
5833.879397552121,0.009155156992091877,-16.75661366101119,79.60475586806059
5884.534862990779,0.004702736062532831,-16.68649448499228,79.53435468293583
5935.630168886185,0.01013124520260826,-16.61138453889761,79.45609121998503
5987.16913436477,0.009812794046563732,-16.54186659919074,79.35879662637744
6039.155611714382,0.007787286154658916,-16.46912050823855,79.2598775360229
6091.593486672206,-0.002772407945555711,-16.39567131381814,79.20287422319228
6144.486678715213,0.00933679413248162,-16.32397407858429,79.10270273738448
6197.839141353125,0.008412570883333961,-16.25145734511031,79.02817518356505
6251.654862423894,0.00493767100009192,-16.17965155198085,78.93370452275548
6305.937864391813,0.008996674442819061,-16.10623398312178,78.83899449241306
6360.692204648153,0.01007780390228584,-16.0357229900835,78.75493466845164
6415.921975814435,0.007409400065247202,-15.96332201179062,78.67070619934185
6471.631306048344,0.0004468887506784696,-15.89148786438341,78.57363128013742
6527.824359352252,0.008370365352817591,-15.82041086671074,78.47334621083827
6584.50533588453,0.009524784893648905,-15.74750013446109,78.37573764078877
6641.678472273421,0.006930460842304371,-15.67345282634045,78.2897169753237
6699.34804193372,-0.002225503874971122,-15.6028030564605,78.21057747703823
6757.518355386231,0.00881419762769821,-15.52991794237202,78.10415621034457
6816.19376057989,0.009517226500496353,-15.45782508155368,78.00598867092071
6875.378643216841,0.007453826705067283,-15.38814598394509,77.9136662807895
6935.077427080169,-0.003206712727743623,-15.31771500796583,77.80573258583615
6995.294574364578,0.008082163146780617,-15.24308290032371,77.71421951124574
7056.034586009945,0.008951884325230147,-15.17225801512309,77.61333783107415
7117.302002037697,0.008011168419143696,-15.09882603975219,77.5086125406535
7179.101401890218,-0.002381058432100381,-15.02668223147175,77.41447796004243
7241.437404773083,0.008047968643703603,-14.95481361599097,77.30743308653157
7304.314670000334,0.008208415106605442,-14.88435575933306,77.20464079653691
7367.737897342767,0.007860870835001301,-14.81217760044023,77.11198211701254
7431.71182737919,0.0006857774870236109,-14.74227651241685,77.01117196192851
7496.241241850772,0.001605471399758484,-14.67278162367631,76.90749886193481
7561.330964018458,0.008574531388898559,-14.59990011062144,76.8018241720366
7626.985859023452,0.00841489836319062,-14.53127360877377,76.69216322508908
7693.210834250913,0.004870170854539732,-14.4553633798879,76.59047760334772
7760.010839696725,-0.003524794160532668,-14.38977108509437,76.47342536535049
7827.390868337496,0.00793217384299099,-14.31524759375495,76.37188197383887
7895.355956503759,0.008839064398498523,-14.24425717399291,76.26476162449028
7963.911184256391,0.006976875192820304,-14.17209478771444,76.16256574604529
8033.061675766364,-0.001492388572445116,-14.1035375878032,76.03019438174115
8102.812599697723,0.002796930747177074,-14.02975376715231,75.92711183972381
8173.169169593927,0.007470902679290813,-13.96236777445615,75.82151329405774
8244.136644267543,0.008625846693864174,-13.89091881221211,75.70189052643876
8315.720328193274,0.006780264089134012,-13.81945507064741,75.57858881674419
8387.925571904532,-0.006762094117271216,-13.74692549200134,75.46515675590729
8460.757772393279,0.004853961005473177,-13.67908980328722,75.35483533056879
8534.222373513443,0.007635642034861038,-13.60637834150529,75.24546324257832
8608.324866387869,0.009000765907300442,-13.53709987576962,75.11789328173509
8683.070789818677,0.005592667915419814,-13.46739825705493,75.00805863252697
8758.465730701348,-0.007404010888331183,-13.39943132924421,74.87831294423854
8834.515324442249,0.005509094766153333,-13.32667389742577,74.76218640543823
8911.225255379859,0.007857101133570932,-13.25763483704195,74.64016372265894
8988.601257209695,0.008118410065207259,-13.18843002729094,74.50723077263262
9066.649113412799,0.006335898805765605,-13.11756358452585,74.40160784303373
9145.374657688128,-0.005405852651268972,-13.04916595043459,74.25701033310901
9224.783774388505,0.004432741769727508,-12.97768534393957,74.14192979054864
9304.882398960464,0.007805354114071471,-12.9082858213491,74.02094816038262
9385.67651838794,0.009443137622637753,-12.83747302509089,73.88844977398755
