#Digilent WaveForms Network Analyzer - Bode
#Device Name: Discovery2
#Serial Number: SN:210321A35FCC
#Date Time: 2019-11-27 17:40:18.996
#Start: 1000 Hz
#Stop: 1e+06 Hz
#Steps: 800
#Wavegen: Wavegen1
#Amplification: 1 X
#Settle: 10 ms
#MinPeriods: 16 
#Channel: Channel 1
#Range: 5.42537 V
#Offset: 0.000183761 V
#Relative: no
#Channel: Channel 2
#Range: 5.47028 V
#Offset: -7.92091e-07 V
#Relative: yes

Frequency (Hz),Channel 1 Magnitude (dB),Channel 2 Magnitude (dB),Channel 2 Phase (*)
1000.000000000001,0.01861379189838674,-53.04911072214229,176.6511449873903
1008.682981252564,0.01830015211561473,-52.96034191654868,177.2840994251562
1017.441356668559,0.01904058228204391,-52.81550142900161,177.0007580505819
1026.275780894095,0.0191205771111253,-52.68149801092896,176.3947163253396
1035.186914259556,0.01927822321995457,-52.55749978961995,176.6782358117671
1044.175422828971,0.01862655293564962,-52.30196467976058,177.0953294266555
1053.241978449782,0.01833930358737166,-52.23064978179628,176.9820476796809
1062.387258803074,0.01914061444331973,-52.12338472413126,176.7866150170758
1071.611947454223,0.01900937169689905,-51.96197980447003,177.0698558506783
1080.91673390399,0.01808601242571151,-51.80267167925016,177.1131194344149
1090.30231364006,0.01823657478989305,-51.59912481451855,176.7767803336539
1099.769388189022,0.01895263255553399,-51.43341109920811,176.5907137312796
1109.31866516881,0.01861841682099199,-51.2292131016022,176.3851102841383
1118.950858341589,0.01886587582244763,-51.13495957860317,176.4774525677591
1128.666687667108,0.01838594510663392,-50.97301402597535,176.4918469768537
1138.466879356514,0.01854697425175077,-50.8899618665416,176.6251905560759
1148.352165926631,0.01870298618971175,-50.78179782213362,176.2443773204729
1158.323286254712,0.01821052193312435,-50.60419511031137,176.7883071422682
1168.380985633668,0.01837938328442288,-50.39112613501989,176.7393889648136
1178.526015827776,0.01795736800386783,-50.23213976684126,176.6941330361051
1188.759135128866,0.01816935191039975,-50.10259775984316,175.9106412800178
1199.081108413004,0.018353189434321,-49.96528370456254,176.7766217950517
1209.492707197656,0.01858037025232352,-49.78881466593883,175.9530061719549
1219.994709699364,0.01846855758046942,-49.59536485198321,176.2291225457552
1230.58790089191,0.01791992521289096,-49.45540718469496,176.2040729256094
1241.273072564985,0.01881520434380256,-49.41311726603794,176.5447718428056
1252.051023383379,0.01798856354512984,-49.25620874684307,176.8525564562784
1262.922558946667,0.01911022786318476,-49.1460209209058,176.5806368053852
1273.888491849441,0.01892659688360517,-49.01558446300537,176.8492592057134
1284.949641742025,0.01857314938659379,-48.69910024766227,176.500757445238
1296.106835391758,0.01801351613513931,-48.64847294764259,176.089705931232
1307.360906744785,0.01799442712311877,-48.52520233969372,176.1070735295037
1318.712696988382,0.01813400196889363,-48.31105337556289,176.4179087275202
1330.163054613849,0.01807575814775271,-48.16292619947286,175.9413465634631
1341.712835479913,0.01840338169421647,-47.99580994689283,175.713296829008
1353.362902876708,0.01812440645407046,-47.89632134085058,176.0616348933863
1365.114127590301,0.0177843412409287,-47.74875810524236,176.6772942984046
1376.967387967775,0.01798962114210599,-47.60255294325171,176.5508625073331
1388.923569982891,0.01821765146543563,-47.45199325515634,175.6626079296671
1400.983567302295,0.01784825565589327,-47.29864134343542,175.5331457181053
1413.148281352329,0.0175813577889087,-47.07031528968749,176.0844051814962
1425.418621386403,0.01811903739710763,-46.93578072407963,175.7992039911261
1437.795504552955,0.01796843438252292,-46.78083536376326,176.2224571186329
1450.279855964008,0.01741300599446884,-46.67811208020196,176.2724420049564
1462.872608764313,0.01794796161245326,-46.56786033468727,175.8387354538692
1475.574704201101,0.01809186488479188,-46.46185021136336,175.9517297074024
1488.387091694435,0.01753554209643074,-46.23558928653405,175.7452148316648
1501.310728908174,0.01762355799717134,-46.07413013077424,175.7116124610256
1514.346581821555,0.01721314955337619,-45.98667027734061,175.7123394473967
1527.495624801396,0.01716126310481962,-45.79200805392602,176.1508787802166
1540.758840674918,0.01698465558011333,-45.5611404074147,175.4733391743784
1554.137220803218,0.01821644321133502,-45.51954182290765,175.8572489996611
1567.631765155362,0.01765528973658964,-45.3659091326202,175.7230909375652
1581.243482383128,0.01739224477427687,-45.19682089252487,175.401733631163
1594.9733898964,0.01803284016208196,-45.01588447218899,175.5762886410948
1608.822513939205,0.01728653891739092,-44.85864634519027,175.9750776973943
1622.791889666442,0.01737222199369012,-44.71072662614452,175.6070611249265
1636.882561221226,0.01701182812753131,-44.52905350031088,175.1985348762262
1651.095581812957,0.01789283553656213,-44.45600056717308,175.5751844349976
1665.432013796029,0.01720551199006957,-44.27968074749546,176.040832865122
1679.892928749236,0.01705910501498963,-44.11631843014378,175.9526615760991
1694.47940755588,0.01776611960432887,-43.97119789679174,175.6793053791919
1709.192540484542,0.01711567222451704,-43.79611413440183,175.7299493897617
1724.033427270589,0.0171245528450945,-43.64360918810483,175.3394848023459
1739.003177198373,0.01710340908205477,-43.55231717361779,175.5045059443381
1754.102909184131,0.01647575845980804,-43.37442192261943,175.1807743763409
1769.333751859645,0.017136241312093,-43.24943168718107,175.4331792453451
1784.696843656568,0.01753639590924955,-43.02093101124956,175.3506520400224
1800.193332891546,0.01645585217437497,-42.87917759484636,175.1128844200892
1815.824377852032,0.01727022568979942,-42.7859834437859,175.2243624338577
1831.591146882867,0.01720638564080623,-42.58696852514276,175.2491950512454
1847.494818473613,0.01675217320930138,-42.40763671104596,175.3325535023658
1863.536581346626,0.01719690587704414,-42.31104738133791,175.3300300177659
1879.717634545924,0.0165331246443269,-42.22185805837286,175.2572162846039
1896.039187526798,0.01638814229673903,-42.03761415413393,175.0054815313694
1912.502460246217,0.01785259062564785,-41.88780702161122,175.0439123163765
1929.108683254017,0.01762538580786482,-41.71151811504926,175.2425259654618
1945.859097784868,0.01727019005528851,-41.58872147269499,175.0929122146894
1962.754955851062,0.01636636740459154,-41.42701310239815,174.938429987753
1979.797520336091,0.01588549250545544,-41.2576550992436,174.9907392461645
1996.98806508904,0.01633044223634262,-41.08211756300544,174.7870633207477
2014.327875019799,0.01696251920984476,-40.95832626329524,174.7616830798319
2031.818246195113,0.01602529754310407,-40.80866379212474,174.8118311304943
2049.460485935438,0.01657604821419277,-40.66445433151145,174.7277030214596
2067.255912912686,0.01680641209392326,-40.51985930193815,174.8736179078971
2085.205857248756,0.01675532164972537,-40.31737492773077,174.6586082631623
2103.31166061498,0.01694343004445591,-40.21138108669726,174.7304630521066
2121.574676332399,0.01696639147716253,-40.07398163580782,174.6990087987726
2139.996269472903,0.01530655542416269,-39.87739022952046,174.4167755652587
2158.577816961293,0.01622841822711295,-39.74611426536681,174.6432248746792
2177.320707678165,0.0165109696440565,-39.61722740197523,174.6623753127375
2196.226342563751,0.01580053695019651,-39.44392422030616,174.3600940816108
2215.296134722619,0.01662018175342219,-39.28910698603015,174.444533342183
2234.531509529288,0.01610699522204501,-39.12997992769257,174.2842822472599
2253.933904734793,0.01535737273541005,-38.97989980098295,174.4557929069873
2273.504770574121,0.01539607838632712,-38.8241513069791,174.1099544543225
2293.245569874628,0.01594484982268644,-38.6912486265166,174.3996366620357
2313.157778165372,0.01634760149458744,-38.52519410288092,174.2886634921104
2333.242883787401,0.01606764887843285,-38.40091914872603,174.0862401584467
2353.502388005005,0.01533539869018309,-38.23185136015075,174.1547761308298
2373.937805117914,0.01684658855875489,-38.07901616234854,174.1236059627786
2394.550662574503,0.01508657940489092,-37.93020112164079,174.1796343979514
2415.342501085949,0.01512212494087115,-37.78022550502884,173.9644088898366
2436.314874741396,0.01583969681647883,-37.60994024490615,173.9858858459282
2457.469351124118,0.01538011993185285,-37.4934910891333,173.9425869187086
2478.807511428676,0.01507356464467311,-37.32560230896345,173.9159033770083
2500.330950579123,0.01543413748624435,-37.13681066730474,173.8354572301982
2522.041277348204,0.01541383466041222,-37.02650840896887,173.7899843128857
2543.940114477607,0.01495699912770354,-36.84613404779355,173.911125679253
2566.029098799259,0.01586904305958687,-36.70796416113083,173.6424050123124
2588.309881357666,0.01555058537159096,-36.55543212317807,173.7263421612076
2610.784127533315,0.01448588489485956,-36.41087833442349,173.5398685063181
2633.453517167177,0.01618126887858518,-36.25463963232642,173.4664098475725
2656.319744686235,0.01532396822665927,-36.09721023924772,173.4033523508684
2679.384519230158,0.01496570575097636,-35.93130416124482,173.5273604328876
2702.649564779043,0.01520307274349543,-35.78214991453314,173.2794392651353
2726.116620282263,0.01450370220879193,-35.65515527472854,173.3671482329581
2749.787439788477,0.01497873677743559,-35.49498524659759,173.3367176300471
2773.663792576692,0.01466752509665766,-35.32116882708307,173.2250028153595
2797.747463288548,0.01443306103330766,-35.17612657040835,173.2264979299295
2822.04025206169,0.01443776318524283,-35.03329734318066,173.2109469203542
2846.543974664316,0.01385529162741605,-34.86975233356533,173.0232603965286
2871.260462630924,0.01468521852931539,-34.71904150911107,173.1680314740247
2896.191563399173,0.01513102536136741,-34.57415882459492,172.9625126746874
2921.339140447999,0.01412414320529226,-34.41200579295539,172.8064486433024
2946.705073436886,0.01431319508206643,-34.24422919760283,172.8129891758896
2972.29125834637,0.01514663302501959,-34.11243581066513,172.8160715254405
2998.099607619751,0.0142520132351696,-33.96487668260037,172.7528092785924
3024.132050306029,0.01453818135506851,-33.81293395430586,172.5844804902249
3050.39053220411,0.01445756265421957,-33.63792247339676,172.6994784416827
3076.877016008233,0.01430654142655758,-33.51104527139718,172.5846590025841
3103.593481454674,0.01396228242732957,-33.35050666472134,172.5164601827297
3130.541925469724,0.01442662717633108,-33.20012370232686,172.4459405970264
3157.724362318939,0.01414803349078762,-33.04066101800121,172.4089078527998
3185.142823757715,0.01437605101819385,-32.89690547156772,172.2962096589429
3212.799359183138,0.01386366628334438,-32.72709983555221,172.3307582781399
3240.69603578717,0.01503989525729899,-32.57194198638325,172.1841331475347
3268.834938711164,0.01378230656890659,-32.42978653348394,172.090694975076
3297.218171201719,0.01401432922944963,-32.26367705816435,172.1386658907872
3325.847854767869,0.0137940013169378,-32.11321394528009,171.9688325883662
3354.726129339698,0.01412630523318903,-31.95337737173803,171.9452796465094
3383.855153428236,0.0136167916829102,-31.80667987422874,171.8601858623897
3413.237104286842,0.01316984055955748,-31.64803026960051,171.7987031862575
3442.87417807392,0.01339402715018243,-31.48947964456112,171.7552482512202
3472.768590017064,0.01394269485244608,-31.33535015537125,171.7310161808444
3502.922574578674,0.01283914868332456,-31.18046871906462,171.6455091731007
3533.338385622919,0.01428976770836322,-31.02020864618084,171.5359484297532
3564.018296584244,0.01287325813157519,-30.85414538874189,171.48377544636
3594.964600637279,0.01260572241417461,-30.71510934010296,171.4363108138025
3626.179610868235,0.01313095742225511,-30.55140151151942,171.290363664629
3657.665660447833,0.01344257445898558,-30.41312108058194,171.292088861008
3689.425102805644,0.0126954122755983,-30.23907418996155,171.2310407355629
3721.460311806039,0.01261591276060786,-30.08611809822427,171.117849122534
3753.773681925607,0.01246394840615096,-29.93414662256956,171.0470106018166
3786.36762843213,0.01325200804230159,-29.77765678636664,171.0142481309735
3819.244587565121,0.01305506671487052,-29.61859599548701,170.9255159999962
3852.407016717901,0.01240646280347856,-29.44960006969719,170.8290157625873
3885.857394621303,0.01277150623623863,-29.2955017149199,170.7649611762288
3919.598221528932,0.01266569589479802,-29.13853304029807,170.6919439329571
3953.632019404046,0.01264145295292833,-28.9841278914997,170.6066288613576
3987.961332108067,0.01230524179847184,-28.83400554048166,170.4927990448236
4022.588725590706,0.01292684059819507,-28.67315575152232,170.4585059785311
4057.516788081781,0.01200758464896493,-28.51672993525549,170.3450026038925
4092.748130284653,0.01239735734153396,-28.36111380979693,170.2866113756298
4128.285385571376,0.01292272730242703,-28.20472341588392,170.1728632828549
4164.131210179521,0.01099257213674022,-28.04140930719942,170.1375897722756
4200.288283410725,0.01245336912050691,-27.88024126739162,169.9733716469023
4236.759307830935,0.01103712999308657,-27.72347719101204,169.9420667427086
4273.547009472456,0.01243382454513754,-27.57286254154088,169.8794227975749
4310.65413803765,0.01211186773892351,-27.39859839778598,169.7444657928165
4348.083467104513,0.01078631421672789,-27.24687450711124,169.6224013711321
4385.837794333964,0.01210671341853043,-27.08988113503485,169.5441772309397
4423.919941678942,0.01119119442659695,-26.93197610502747,169.4874750680552
4462.332755595384,0.01061057743815899,-26.76951440810424,169.3919536304991
4501.079107254915,0.01180287555568488,-26.61542525194709,169.3050043085308
4540.161892759511,0.009113939791387015,-26.45376769833627,169.2658243842343
4579.584033357946,0.01149569951406334,-26.28603358281196,169.1349681364573
4619.348475664124,0.01239821131256265,-26.1321886605142,169.0322121521492
4659.458191877374,0.01031720933251678,-25.97032711145435,168.8601677506589
4699.916180004545,0.011166367719912,-25.80194202210949,168.8209192339358
4740.725464084141,0.01039167566534543,-25.63989328222493,168.6610742321401
4781.88909441233,0.01004218399988786,-25.48511207726596,168.5999455803987
4823.410147770946,0.01043129579647433,-25.32614276092592,168.4864329508668
4865.291727657467,0.00932682907589762,-25.15898201815244,168.3991715202113
4907.536964516966,0.01028838305456829,-25.00386547085697,168.2921215178869
4950.149015976125,0.01084504031719644,-24.84322221410328,168.1848789887675
4993.131067079237,0.007819229871595834,-24.68193064281047,168.081250025214
5036.486330526274,0.01075570188911155,-24.51686782910421,167.8993103876454
5080.218046913028,0.01210553403482963,-24.35651281966481,167.8289372004855
5124.329484973304,0.007651779044665305,-24.19310587905288,167.7106524386982
5168.823941823282,0.01059942973293277,-24.04073559526211,167.5989051268062
5213.704743207931,0.01158806859879471,-23.86757643200164,167.5108385538034
5258.975243749603,0.007158309350292422,-23.70917861020283,167.3693955814895
5304.638827198777,0.00984076909037096,-23.54155301353524,167.2417561891951
5350.69890668696,0.01109658308843433,-23.38287108680552,167.1710481687115
5397.158924981825,0.008075121714101744,-23.2114144196753,167.0231940557646
5444.022354744549,0.01014728383162506,-23.04473375302788,166.9276621608482
5491.292698789329,0.01014924957348885,-22.88937521030734,166.7877260556774
5538.973490345252,0.008140051529234431,-22.72541646058157,166.5895243361762
5587.068293320367,0.009577763611033459,-22.55429757387783,166.497590670144
5635.580702568049,0.01090684591435356,-22.39140738790322,166.3688404010007
5684.514344155757,0.01028738127561718,-22.22377366280357,166.2149309226501
5733.872875635986,0.001726584150205152,-22.05854435974417,166.1023364750176
5783.659986319711,0.009263843032218206,-21.89430433137996,165.9540760955335
5833.879397552121,0.01008546778227628,-21.72110326496137,165.8328670148427
5884.534862990779,0.005100117962955559,-21.55278515888926,165.6918387131672
5935.630168886185,0.009461794898375906,-21.38954358677406,165.5242684818754
5987.16913436477,0.010579110209669,-21.22324658959039,165.3890830039938
6039.155611714382,0.008229940035439918,-21.05284763753732,165.2245402562624
6091.593486672206,-0.001707269162079536,-20.88624307843408,165.086670318343
6144.486678715213,0.009455622628291688,-20.71600796544393,164.9330573046137
6197.839141353125,0.009790578590007421,-20.55304243119705,164.7732474572977
6251.654862423894,0.005325926279846275,-20.38156739583277,164.6160436910786
6305.937864391813,0.00942465999796936,-20.21007989874359,164.467568049279
6360.692204648153,0.009327995012584503,-20.04208521166274,164.3159768652282
6415.921975814435,0.008655408458950757,-19.87236587206712,164.1604529946332
6471.631306048344,0.001423445398499722,-19.69986156031682,163.9567506479549
6527.824359352252,0.008256442768544949,-19.53196998478433,163.8144481239143
6584.50533588453,0.009330121943933525,-19.36120132455992,163.6359720551099
6641.678472273421,0.008623847879144022,-19.18713755093346,163.4434417953665
6699.34804193372,-0.001553365230795497,-19.01527092436607,163.2675160725283
6757.518355386231,0.008893422038217712,-18.84032458458978,163.0861835359508
6816.19376057989,0.009281021604815075,-18.66735238967993,162.9092348248958
6875.378643216841,0.007370035072026237,-18.49828528501538,162.7143566348711
6935.077427080169,-0.003583574015529151,-18.32091933688993,162.5303769176916
6995.294574364578,0.008703109678395193,-18.14852609881613,162.3558659891462
7056.034586009945,0.009355547903037765,-17.97079955865966,162.1093587301086
7117.302002037697,0.008409737473665069,-17.79742503731751,161.9485160090892
7179.101401890218,-0.002133590025005491,-17.619966831907,161.7454160098231
7241.437404773083,0.008107120991701773,-17.44385469788689,161.518740350705
7304.314670000334,0.008726770292160835,-17.26995202782825,161.3163434403224
7367.737897342767,0.008301422800446701,-17.08937949093707,161.0929554635679
7431.71182737919,0.001272095877588433,-16.91430589469424,160.898119118844
7496.241241850772,0.001463514449094981,-16.73216367153982,160.6714885399013
7561.330964018458,0.009138884665673449,-16.55545040399877,160.4503453406708
7626.985859023452,0.008459360314691409,-16.37922856585004,160.2271406026359
7693.210834250913,0.004452555702765475,-16.19759677753251,159.980009634781
7760.010839696725,-0.003767378288050543,-16.01716684418889,159.7344033582816
7827.390868337496,0.00904298594007143,-15.8396373477831,159.4981631849837
7895.355956503759,0.00886875284596093,-15.65633403676416,159.2484618479609
7963.911184256391,0.00704880207753766,-15.47423934761145,158.986878456188
8033.061675766364,-0.0009103550975736426,-15.29340573407144,158.7510721482077
8102.812599697723,0.00390808243813085,-15.1082739403824,158.4901999557384
8173.169169593927,0.008460265184497046,-14.92660134523838,158.2175297398444
8244.136644267543,0.008186264582497957,-14.74360001457519,157.9422482852999
8315.720328193274,0.006516280400786946,-14.55790822409543,157.6755779241032
8387.925571904532,-0.006368976616354133,-14.37037841800374,157.3897259145405
8460.757772393279,0.005694873635539443,-14.18422361923417,157.0912449550686
8534.222373513443,0.00851427035866917,-13.99703642119759,156.7996310493211
8608.324866387869,0.009104739559422977,-13.80965229706086,156.4945632807353
8683.070789818677,0.006788658889925612,-13.62376745364701,156.1737028314562
8758.465730701348,-0.007382723820739068,-13.43253578647534,155.8898850195737
8834.515324442249,0.006244414293039372,-13.24366772201698,155.5521977511411
8911.225255379859,0.008826208712654177,-13.05498807340452,155.2274200713129
8988.601257209695,0.009215131726936769,-12.86418598112411,154.8918759702692
9066.649113412799,0.00713515371819427,-12.67081654979908,154.5467245553419
9145.374657688128,-0.005220192546763161,-12.47736245263688,154.1976022985216
9224.783774388505,0.005105613271109246,-12.28517314301945,153.8211335214071
9304.882398960464,0.008589220694759895,-12.09076861806426,153.4650670225946
9385.67651838794,0.008253186090570958,-11.89378777114043,153.0987677658424
