#Digilent WaveForms Network Analyzer - Bode
#Device Name: Discovery2
#Serial Number: SN:210321A35FCC
#Date Time: 2019-11-27 17:38:34.473
#Start: 1000 Hz
#Stop: 1e+06 Hz
#Steps: 800
#Wavegen: Wavegen1
#Amplification: 1 X
#Settle: 10 ms
#MinPeriods: 16 
#Channel: Channel 1
#Range: 5.42537 V
#Offset: 0.000183761 V
#Relative: no
#Channel: Channel 2
#Range: 5.47028 V
#Offset: -7.92091e-07 V
#Relative: yes

Frequency (Hz),Channel 1 Magnitude (dB),Channel 2 Magnitude (dB),Channel 2 Phase (*)
1000.000000000001,0.01840356596593872,-61.46789755642275,176.0970034569905
1008.682981252564,0.01842899820557177,-61.46895171777808,176.3679850980404
1017.441356668559,0.01875762611603253,-61.58084008060571,175.5235091333209
1026.275780894095,0.01834509092421968,-61.07345759561915,173.565624433892
1035.186914259556,0.01874715807509517,-61.04664698380169,176.396922847559
1044.175422828971,0.01842033265999967,-60.98970479107139,176.342956817075
1053.241978449782,0.01911340950092378,-60.97901263227013,175.8833506572464
1062.387258803074,0.01881421752268866,-60.32643549886603,176.066579618959
1071.611947454223,0.01867434827024989,-60.23715651737984,176.5673365798358
1080.91673390399,0.01830967370590569,-60.08931452988876,176.3411764983904
1090.30231364006,0.01887481885076962,-59.91678016319823,175.6284974219511
1099.769388189022,0.01817293804040809,-60.2402045033465,175.0910844735416
1109.31866516881,0.01850506276031236,-59.72148122922106,176.0083412777495
1118.950858341589,0.0181132591801053,-59.84633293592787,176.2792089225855
1128.666687667108,0.01866026348696504,-59.62379858666507,175.4186932891921
1138.466879356514,0.01859913473911051,-59.68200568358708,175.4510569588564
1148.352165926631,0.01872625255632419,-59.25132361858155,175.6661716321403
1158.323286254712,0.01836065528994583,-58.80913524950694,176.0816434868094
1168.380985633668,0.01850444554928676,-58.94572381210713,174.1121871448235
1178.526015827776,0.01847124251892725,-58.89459277003995,174.3469915537241
1188.759135128866,0.01865042731498832,-58.88239482472685,176.2682299802124
1199.081108413004,0.01823143545304825,-58.59153051106207,173.7053131765684
1209.492707197656,0.01819957296180552,-58.29427206579157,176.5295843873878
1219.994709699364,0.0178452920512852,-57.9310171795528,174.7906437979647
1230.58790089191,0.01781767731072901,-57.94569579464782,175.0882606909012
1241.273072564985,0.01775590952237104,-58.0572667995547,174.8343955904551
1252.051023383379,0.01795782440623113,-57.72113212186866,175.3715151041973
1262.922558946667,0.01801505461904018,-57.70649755094533,176.2479422395763
1273.888491849441,0.01797936168353181,-57.59601781164627,174.6294495433803
1284.949641742025,0.01823731587468094,-57.2541599464441,175.2290082332546
1296.106835391758,0.01807864748563048,-57.40559606655193,174.3951215071791
1307.360906744785,0.01829717709527135,-57.04531552627195,175.1324892076198
1318.712696988382,0.01835831552231151,-56.84821397757062,174.9233280505572
1330.163054613849,0.01767882640464499,-56.83199180232145,173.7658593465159
1341.712835479913,0.01752168449061074,-56.61997216096996,174.8895916073967
1353.362902876708,0.01860564787847016,-56.33672407991852,175.4202849573011
1365.114127590301,0.01812865327854539,-56.0940547169189,175.3123910521716
1376.967387967775,0.01805203850829463,-56.3291671499162,174.49541247441
1388.923569982891,0.01813206323447031,-55.97883795423475,175.0493834220734
1400.983567302295,0.01753484461546313,-55.82539703760709,175.6384052437407
1413.148281352329,0.01780696396646894,-55.76738013711193,174.6027094974125
1425.418621386403,0.01801004378342199,-55.57637551673643,175.2348354027862
1437.795504552955,0.01847468332034543,-55.37044355227816,175.4281170830685
1450.279855964008,0.01856395769182665,-55.46129366349398,175.7398860929435
1462.872608764313,0.01811511263857169,-54.95329129038357,173.5668515542207
1475.574704201101,0.0171352090479789,-54.94012498476067,172.7904750146607
1488.387091694435,0.01762803571545805,-54.79590973096788,173.8398176320154
1501.310728908174,0.017851363814791,-54.58002219129177,173.7464529542227
1514.346581821555,0.01714750749801394,-54.45530757833988,174.1455158404324
1527.495624801396,0.01712833108398381,-54.49196667480396,174.9041555499014
1540.758840674918,0.01814355139670309,-54.42088870807994,174.2839028853784
1554.137220803218,0.01726954103734826,-54.08256254757119,174.3730521341128
1567.631765155362,0.01754465094837343,-53.86821392042972,173.6664939964239
1581.243482383128,0.01782181321523168,-53.74306584312212,173.6017907820479
1594.9733898964,0.01763631149670714,-53.56909525364699,173.2313197071366
1608.822513939205,0.01716326897548994,-53.44499739011408,173.3894538615477
1622.791889666442,0.01786043063725554,-53.4034750947523,175.0564700558017
1636.882561221226,0.01645629640297448,-53.21659856392895,173.5127471606882
1651.095581812957,0.01735799972220134,-52.9032603342544,173.5979727302499
1665.432013796029,0.017288297467116,-52.97656359039505,173.2107660361112
1679.892928749236,0.01761934847792258,-52.75531020481274,174.4318189028569
1694.47940755588,0.01745220630381559,-52.53327198756737,173.4496479442806
1709.192540484542,0.0174266452241734,-52.33273982340592,173.5229756726461
1724.033427270589,0.01727651444642056,-52.19957311039545,174.1141660615378
1739.003177198373,0.01723757557424192,-52.09146581984221,173.7386929731179
1754.102909184131,0.01747205402729649,-52.02531395048272,173.4828462490435
1769.333751859645,0.0174342973505316,-51.81908569891298,174.0723792858051
1784.696843656568,0.0166251047392785,-51.70017657777306,173.044485695712
1800.193332891546,0.01654933294118213,-51.57965120229739,173.9509216555386
1815.824377852032,0.01732447648584203,-51.40496039331091,173.2820738989206
1831.591146882867,0.01656534807557858,-51.31390423231607,172.975574504503
1847.494818473613,0.01582233934261589,-51.06596621457055,173.5201962010576
1863.536581346626,0.01705963188858111,-50.86229391022906,172.9938688230821
1879.717634545924,0.01718345366580971,-50.82146604860046,172.8232317502919
1896.039187526798,0.01669903742147317,-50.54687089006415,172.8979431973871
1912.502460246217,0.01714068817480902,-50.47922304384308,172.8660287087984
1929.108683254017,0.0171638483721783,-50.37015379597115,173.3395705226337
1945.859097784868,0.01729589842903398,-50.07069432365146,173.3461841085206
1962.754955851062,0.01721271775625774,-49.96985132543345,173.148298254935
1979.797520336091,0.01697166348167671,-49.92485515571603,172.6973940103848
1996.98806508904,0.01627164187347351,-49.81183655971742,172.723248260329
2014.327875019799,0.01578263348607029,-49.60690277790003,172.3041416274635
2031.818246195113,0.01673454386255025,-49.52111489695996,171.9519509491658
2049.460485935438,0.01686747827375416,-49.35038346149827,172.3642313187697
2067.255912912686,0.0165797006405262,-49.12539498152834,172.3561756481849
2085.205857248756,0.0163168768192239,-48.91914966678966,172.4675580263397
2103.31166061498,0.01650712936308158,-48.78471431461429,172.0764209395274
2121.574676332399,0.01665872173349154,-48.68049558087584,172.9884708378393
2139.996269472903,0.01672623584199934,-48.66374110177519,172.3010360957823
2158.577816961293,0.01660655740325129,-48.3889189125149,172.1839500857898
2177.320707678165,0.01614895906331568,-48.22266177230407,172.4887486059221
2196.226342563751,0.01617796826345871,-48.10321905033004,171.9143170047126
2215.296134722619,0.01621033577998972,-47.90993267446198,172.206776003317
2234.531509529288,0.01585866593374243,-47.78573450600258,172.3168280568046
2253.933904734793,0.01520766636696154,-47.72843655043418,171.8968084459938
2273.504770574121,0.01511629786845477,-47.54454980478147,172.0114969035838
2293.245569874628,0.01654871606772143,-47.41520672407178,171.6889099950534
2313.157778165372,0.01573518572328421,-47.22335808779886,171.4848926081348
2333.242883787401,0.01532537713334028,-47.10701582507014,171.6878713778703
2353.502388005005,0.01544725268984107,-46.90441169297512,171.1577100766306
2373.937805117914,0.01600757503481987,-46.72915613996989,171.6890803923185
2394.550662574503,0.01437259524491335,-46.60056496359224,171.4622408964096
2415.342501085949,0.01479436922363767,-46.43165470617546,171.5693309806205
2436.314874741396,0.01602394240379753,-46.31238748415595,171.0931559813197
2457.469351124118,0.01587802596717217,-46.1432902372063,171.1581569825896
2478.807511428676,0.01492764511803188,-46.01580980711599,171.2438085287566
2500.330950579123,0.0158100306759913,-45.88255899823136,170.8509710707898
2522.041277348204,0.01583110424269062,-45.72953479660475,171.1108022662029
2543.940114477607,0.01529580224274361,-45.54205203480169,171.4233171916958
2566.029098799259,0.015763655285639,-45.44844157115094,170.8563008516932
2588.309881357666,0.01614068032588106,-45.27430259928423,170.9117387678623
2610.784127533315,0.01480635894128279,-45.07429346698747,170.6348634341373
2633.453517167177,0.01517246075295827,-44.93183697705126,170.7546457516432
2656.319744686235,0.01494084201317228,-44.82656347776512,170.6446266376747
2679.384519230158,0.01418264747930075,-44.60144821011206,170.2114279780499
2702.649564779043,0.01544445598797191,-44.48896212809919,170.5090005160318
2726.116620282263,0.0145872859766968,-44.35528285865868,170.3313991168332
2749.787439788477,0.01518910420298418,-44.26006619835846,170.4523528972182
2773.663792576692,0.01480655026120459,-44.1311930381483,170.3158416093066
2797.747463288548,0.01442743635412435,-43.92006211229442,170.18625445883
2822.04025206169,0.0148957964756349,-43.7426791628392,169.9362416168482
2846.543974664316,0.01391206802061212,-43.64294787481366,169.9708880053681
2871.260462630924,0.01530594775976095,-43.48149817224042,170.1781858779342
2896.191563399173,0.01457370456062286,-43.35052598593131,170.1557501818907
2921.339140447999,0.01522978747862337,-43.19318659288498,169.6253060448871
2946.705073436886,0.01421505521877139,-43.01380328943598,169.7885930235969
2972.29125834637,0.01478779200814287,-42.86621592207645,169.6797656552118
2998.099607619751,0.01486333517703551,-42.68633196903804,169.4828200832291
3024.132050306029,0.01436900912400018,-42.56737552450285,169.6108568451275
3050.39053220411,0.01397234136037066,-42.38371086817512,169.5556102008199
3076.877016008233,0.01434300916061601,-42.32540579207686,169.357354301712
3103.593481454674,0.01326716469241805,-42.14630731919595,169.3983462254045
3130.541925469724,0.01384742723317379,-41.9730181243396,169.1962976699542
3157.724362318939,0.01384289503925504,-41.80624763247071,169.1966495654842
3185.142823757715,0.01363863589990889,-41.68164698164275,168.7181589669377
3212.799359183138,0.01284247252485275,-41.53717482175699,169.0312821194294
3240.69603578717,0.01410215835456211,-41.38963506470787,168.8227528666507
3268.834938711164,0.0125823299504112,-41.25177800766372,168.5049410410371
3297.218171201719,0.01387721971348692,-41.11420510626215,168.5922044293858
3325.847854767869,0.0123767330503944,-40.98371417344438,168.5875560449578
3354.726129339698,0.01351495672933397,-40.76885547185466,168.4755370310729
3383.855153428236,0.01186603698148457,-40.59931831394655,168.4314063261926
3413.237104286842,0.01397983831571236,-40.5052012025608,168.2252122943956
3442.87417807392,0.01433498695230243,-40.34063157075488,167.9829542747906
3472.768590017064,0.01335981349765096,-40.17598010229938,168.2282880875629
3502.922574578674,0.01297246752880158,-40.0820628936481,167.9503625709648
3533.338385622919,0.01324149706871133,-39.91455316815218,167.7943912936901
3564.018296584244,0.01274028975739752,-39.76534610875188,167.6959579498838
3594.964600637279,0.01299979374052039,-39.59724282922571,167.7690545956027
3626.179610868235,0.01306083140003874,-39.4999983235415,167.5379702064383
3657.665660447833,0.01258045781462888,-39.29618792329389,167.5301805630507
3689.425102805644,0.01255540103972498,-39.16048159328898,167.4383153814336
3721.460311806039,0.01265680152650762,-39.02606950569169,167.3192983534176
3753.773681925607,0.01215810908058787,-38.87025039010665,167.2929175096104
3786.36762843213,0.01322096002225775,-38.72070520408276,167.0984604264259
3819.244587565121,0.01147577740355469,-38.568123158132,166.8349797564946
3852.407016717901,0.01224379501832325,-38.40416135025499,166.8042050328704
3885.857394621303,0.0121438632849235,-38.27095835899878,166.6255316859341
3919.598221528932,0.01206748029236154,-38.104795903736,166.7884203685006
3953.632019404046,0.01252272813513755,-37.9647947438482,166.2621455521657
3987.961332108067,0.01120978965604356,-37.81228899455974,166.3284262850783
4022.588725590706,0.01235927281429129,-37.66226821706645,166.0933848092297
4057.516788081781,0.01179560534707567,-37.52361180239048,166.1522023821848
4092.748130284653,0.01141229714987563,-37.36826966223781,165.9450302424711
4128.285385571376,0.01104981941247052,-37.24095765249847,166.0899450878426
4164.131210179521,0.01106011336556457,-37.06918875497277,165.7234361509048
4200.288283410725,0.01206170957591213,-36.94297582496593,165.708620686275
4236.759307830935,0.01171922315742489,-36.77732016208133,165.5514816735661
4273.547009472456,0.01122593273704614,-36.65109188787164,165.4081052263325
4310.65413803765,0.01182158903111707,-36.46984432648398,165.3072468269868
4348.083467104513,0.01037598205099134,-36.34176365650627,165.1239816244243
4385.837794333964,0.01204146462995886,-36.15875081032521,165.1656855364638
4423.919941678942,0.01022315793668464,-36.03796625726479,164.957155975159
4462.332755595384,0.01126417309173114,-35.90181886806882,164.8963843563018
4501.079107254915,0.01113697717078153,-35.74626352278371,164.6620941603512
4540.161892759511,0.008268384677183452,-35.60743502561212,164.7846355049357
4579.584033357946,0.01116476166676856,-35.43177120295418,164.5229223627916
4619.348475664124,0.01104433757661808,-35.29787867222431,164.3715108708704
4659.458191877374,0.01063175755615457,-35.17196054437772,164.3320203768406
4699.916180004545,0.01133435245095144,-35.0032641151023,164.1543191255296
4740.725464084141,0.009790624476145426,-34.84960602876617,163.9773932830959
4781.88909441233,0.01061790225618191,-34.71831328346362,163.8962401266544
4823.410147770946,0.01117949023500388,-34.55385129821335,163.6845285090291
4865.291727657467,0.008543493453078258,-34.40833964325959,163.7686571896808
4907.536964516966,0.009950174935957222,-34.28456430677058,163.3974976110419
4950.149015976125,0.01111572473087535,-34.12214615290192,163.3366931859386
4993.131067079237,0.007393712257760079,-33.9815177692434,163.1036207358287
5036.486330526274,0.009955121920391939,-33.82275519794639,163.1014424396762
5080.218046913028,0.01099912833293625,-33.65825324569443,162.9447855364751
5124.329484973304,0.006745515554931554,-33.53768267926579,162.7820509571715
5168.823941823282,0.00939011755183018,-33.37204020423363,162.6485584825273
5213.704743207931,0.01008723647206299,-33.23145719183157,162.4869945464843
5258.975243749603,0.007199110615886489,-33.09302357086776,162.3807063875857
5304.638827198777,0.009475693576933755,-32.92610235906467,162.1957655472476
5350.69890668696,0.01063177639517578,-32.78365127187173,161.9250749374216
5397.158924981825,0.007140109930325061,-32.64308870146611,161.9537344791212
5444.022354744549,0.008970191379217006,-32.4854570205198,161.7784132030332
5491.292698789329,0.009925726612274307,-32.345424920085,161.6417064197863
5538.973490345252,0.008861731694022986,-32.19747439116485,161.4371290293173
5587.068293320367,0.008771151939866946,-32.05761487143381,161.2949202212926
5635.580702568049,0.01016457383433592,-31.89922838639768,161.1331376313878
5684.514344155757,0.008942596579930101,-31.74720907932539,161.0433412069651
5733.872875635986,0.001159773434772581,-31.60371306489848,160.7922603633423
5783.659986319711,0.009272247660653016,-31.46262043874238,160.7039350179907
5833.879397552121,0.009309037943498025,-31.30424167866771,160.534180118784
5884.534862990779,0.005624867902819798,-31.16169973264341,160.4296947616677
5935.630168886185,0.009118351100533259,-31.01062760858853,160.1359124923628
5987.16913436477,0.009724918348771865,-30.86346786478931,160.0169956974789
6039.155611714382,0.007087935665221817,-30.72385308974026,159.8667222825597
6091.593486672206,-0.001730968543423914,-30.57731284811718,159.6355729339955
6144.486678715213,0.008264818952606855,-30.43154211838882,159.5580151529061
6197.839141353125,0.009444982592811693,-30.28432954686805,159.3267026073909
6251.654862423894,0.003762865945845304,-30.12958902512803,159.1727583100306
6305.937864391813,0.00788929335855886,-29.9642734619515,159.0214704761422
6360.692204648153,0.00894331936799716,-29.83324176789667,158.7418354351562
6415.921975814435,0.009015761873777782,-29.68316086713064,158.5954639494616
6471.631306048344,0.001349029274167124,-29.53694113918754,158.3783115463855
6527.824359352252,0.008511958676517503,-29.3800976626542,158.2358936551762
6584.50533588453,0.009182106289888681,-29.25163353958227,158.0884064531544
6641.678472273421,0.007100707785996497,-29.08858793401773,157.8600739545339
6699.34804193372,-0.002313593001166877,-28.9497432616395,157.7579700292861
6757.518355386231,0.008906072492896414,-28.79069969203016,157.5032563492521
6816.19376057989,0.009508559852798413,-28.65223200881635,157.2977207599335
6875.378643216841,0.006953786394851549,-28.50544073293441,157.138172826522
6935.077427080169,-0.00379294637109585,-28.35603185431499,156.9852643169482
6995.294574364578,0.008285906746203253,-28.20857938119141,156.751865633035
7056.034586009945,0.008597799971026727,-28.0632894234362,156.5695608212516
7117.302002037697,0.006818789595435241,-27.91001280263826,156.3802450469526
7179.101401890218,-0.002682999354843248,-27.77241528409495,156.150226685999
7241.437404773083,0.008197690745772614,-27.62060098096414,156.0082122348077
7304.314670000334,0.009110087892364055,-27.48072743297664,155.8169851525824
7367.737897342767,0.008079141040292254,-27.32250463988123,155.5755413292671
7431.71182737919,0.001480812344498299,-27.18327665521878,155.3461529567184
7496.241241850772,0.001547532171012071,-27.03312323743478,155.1722398326614
7561.330964018458,0.008095192859890044,-26.88519531658459,154.9558384081582
7626.985859023452,0.008548301250832944,-26.74462517020503,154.6722382212644
7693.210834250913,0.004130800139505592,-26.59013615743166,154.5114087107837
7760.010839696725,-0.003503737464621169,-26.44212561145514,154.2788135038327
7827.390868337496,0.008212195872173053,-26.30253909907883,153.9986913632016
7895.355956503759,0.008377683353398141,-26.15251776626561,153.9196981737999
7963.911184256391,0.008312972153149578,-26.01360529072587,153.59902240619
8033.061675766364,-0.0006193801718911746,-25.86108522134737,153.4274634308044
8102.812599697723,0.003384704178676444,-25.71362634716371,153.1900343421641
8173.169169593927,0.008202442652018884,-25.56680375111876,152.9899307775489
8244.136644267543,0.008105735792994484,-25.43224409632308,152.7106014839987
8315.720328193274,0.005898908955662996,-25.28145755660139,152.4980367927274
8387.925571904532,-0.006997537443163712,-25.1308837785288,152.2645605788798
8460.757772393279,0.006329855309498103,-24.99083534911517,152.0111380013182
8534.222373513443,0.00742585094652113,-24.83741946219207,151.7586155707658
8608.324866387869,0.008748598082885235,-24.697417923128,151.6056046721958
8683.070789818677,0.005724712265463538,-24.55366422329971,151.3389869324427
8758.465730701348,-0.007485185535932776,-24.40981397508051,151.0657689454389
8834.515324442249,0.005836041718852165,-24.25707698540017,150.8366654846886
8911.225255379859,0.007540622680257942,-24.11788715040053,150.5869737794621
8988.601257209695,0.008807612037651336,-23.97302115373014,150.319040918758
9066.649113412799,0.006804177373675317,-23.83046213476874,150.0255045908686
9145.374657688128,-0.004837410465539355,-23.6818952771846,149.7504982415393
9224.783774388505,0.005209560891132185,-23.53459929405482,149.5268141253606
9304.882398960464,0.007139247318359384,-23.39796468811008,149.2797365032992
9385.67651838794,0.008776156420953472,-23.24236467805613,149.0094328005273
