#Digilent WaveForms Network Analyzer - Bode
#Device Name: Discovery2
#Serial Number: SN:210321A35FCC
#Date Time: 2019-11-27 17:39:33.437
#Start: 1000 Hz
#Stop: 1e+06 Hz
#Steps: 800
#Wavegen: Wavegen1
#Amplification: 1 X
#Settle: 10 ms
#MinPeriods: 16 
#Channel: Channel 1
#Range: 5.42537 V
#Offset: 0.000183761 V
#Relative: no
#Channel: Channel 2
#Range: 5.47028 V
#Offset: -7.92091e-07 V
#Relative: yes

Frequency (Hz),Channel 1 Magnitude (dB),Channel 2 Magnitude (dB),Channel 2 Phase (*)
1000.000000000001,0.01848594622689719,-56.54997456807158,176.0303575352529
1008.682981252564,0.01852107296396275,-56.18811573496392,177.4125942147934
1017.441356668559,0.01845816500571926,-56.24874607708284,176.1835742383153
1026.275780894095,0.01911723350483081,-55.96426962803011,176.6742258158441
1035.186914259556,0.01888896027377271,-56.13764122698825,177.7090754069097
1044.175422828971,0.01883847650092238,-55.82001910949373,176.1754864771895
1053.241978449782,0.01886615945119849,-55.71861808637791,177.2192196293219
1062.387258803074,0.01818121001482122,-55.53390408673771,175.9421716268319
1071.611947454223,0.0187798151210873,-55.29853514536869,175.9594946050405
1080.91673390399,0.01837635674580812,-55.03807447140015,177.6960706471852
1090.30231364006,0.01892929827024257,-55.18777674083886,176.7033072791997
1099.769388189022,0.01925041195493186,-54.95332245349121,176.1192872349571
1109.31866516881,0.01889172721597464,-54.7011375772021,177.531881310353
1118.950858341589,0.01827439871980609,-54.45053308224283,176.7128161585555
1128.666687667108,0.01870897721028653,-54.3203472944091,176.3296820376536
1138.466879356514,0.01844335222499052,-54.36597500218411,176.0948049770188
1148.352165926631,0.01860337336466418,-53.98150799175563,176.829145375063
1158.323286254712,0.01790212477626545,-53.9596513047293,176.3889800547935
1168.380985633668,0.01816897712588084,-53.81694342650374,176.5390124868817
1178.526015827776,0.01881571944980602,-53.62302136721912,175.5405588633168
1188.759135128866,0.0183388684156299,-53.51021593033558,176.364602456561
1199.081108413004,0.01847058519770407,-53.41451095825511,175.9386024870237
1209.492707197656,0.01865115195720438,-53.29730604175533,175.4320339401711
1219.994709699364,0.01913237196773098,-52.87977081575711,176.7642399729336
1230.58790089191,0.01815422338146477,-52.93129473455711,176.37424374931
1241.273072564985,0.01791370482116695,-52.72484260481956,175.8318732640771
1252.051023383379,0.01784894883487215,-52.54050523996584,176.0290485002562
1262.922558946667,0.01772672644190959,-52.5153257579423,176.1753347239032
1273.888491849441,0.0179276567005228,-52.3028148956553,176.1082877622724
1284.949641742025,0.01821879566536157,-52.1679597235186,176.3411647221488
1296.106835391758,0.01845550184490192,-52.11023940540545,175.6475621875937
1307.360906744785,0.01861836835924461,-52.04601918695045,176.1219359072105
1318.712696988382,0.01828984295207462,-51.70235603487106,175.7048115035199
1330.163054613849,0.01828175032701002,-51.68481501243747,175.9420553030429
1341.712835479913,0.01857918255557054,-51.33136929745167,175.8828410509556
1353.362902876708,0.01798473503557721,-51.19544902452872,176.3359666378621
1365.114127590301,0.01773355511592102,-51.11531947988182,175.7457446361159
1376.967387967775,0.0182775977914791,-51.02090007074271,176.3278582352361
1388.923569982891,0.01815209935231028,-50.77844526171332,175.4991002407867
1400.983567302295,0.01787066149794676,-50.76368848407696,175.60540322791
1413.148281352329,0.01782055607263648,-50.50425810109072,175.6162254108702
1425.418621386403,0.01814796920973645,-50.38035199499353,175.4743143597615
1437.795504552955,0.01734790399475685,-50.22428353132592,175.4874779607722
1450.279855964008,0.01786669238465464,-50.10883833381182,176.1010140834311
1462.872608764313,0.01801053542341772,-49.92356342387434,175.7565501619214
1475.574704201101,0.01837805990484255,-49.93328011434158,175.5983002133526
1488.387091694435,0.01759744170310443,-49.65583553353881,175.0045633415523
1501.310728908174,0.01835203446590672,-49.4465245844436,175.6617533922195
1514.346581821555,0.01712041966500871,-49.25583379128874,175.8949006191371
1527.495624801396,0.01650893278237841,-49.14762416104419,175.13936547975
1540.758840674918,0.01737884788355905,-48.95521609206813,175.3879452445416
1554.137220803218,0.01757700377924692,-48.9133264905762,175.3646840390418
1567.631765155362,0.01763647461185888,-48.74642464851831,174.9677124666626
1581.243482383128,0.01798026804239324,-48.59205992710319,175.3841254396411
1594.9733898964,0.01811963184867234,-48.38202632648276,175.6774530277379
1608.822513939205,0.01767947851401163,-48.29177168813379,174.9944065623665
1622.791889666442,0.01782577811318676,-48.0203138955168,175.2735776846517
1636.882561221226,0.01851703928381547,-47.94189054523112,174.7042139264899
1651.095581812957,0.01798713573002652,-47.84599252047158,175.4304120332315
1665.432013796029,0.01722712723283499,-47.6162982596409,175.4893603044311
1679.892928749236,0.01753241932159695,-47.5193088051655,174.8065913896116
1694.47940755588,0.01715427663603688,-47.36813199272868,174.8340451047826
1709.192540484542,0.01684935355204992,-47.18850169292797,175.3262499250055
1724.033427270589,0.01780444467825116,-47.12280678553775,174.2930477403322
1739.003177198373,0.01688004174362831,-46.87635835657819,175.1031253049094
1754.102909184131,0.01715678989535872,-46.77958225826299,175.1617334641801
1769.333751859645,0.0172124805871989,-46.58725953008336,174.3388675309128
1784.696843656568,0.01696982955696016,-46.47767740544314,174.3290677986684
1800.193332891546,0.01718030985329918,-46.23960090298411,174.611741088205
1815.824377852032,0.01706489011072568,-46.16648137411233,174.5245629678109
1831.591146882867,0.01704471802285654,-46.0017702422534,174.2172740902903
1847.494818473613,0.01643014511039175,-45.85139917321604,174.5040527476433
1863.536581346626,0.01663341046859603,-45.75179823220509,174.3489708792602
1879.717634545924,0.01732219467755278,-45.62407315306568,174.3494884658895
1896.039187526798,0.01655658700549733,-45.43361060913907,174.5729598371284
1912.502460246217,0.01696106431860881,-45.22051801380363,174.2114302956288
1929.108683254017,0.01736979021132216,-45.09493572927514,174.361890012789
1945.859097784868,0.01740113075338471,-44.97794474811479,174.3563481272614
1962.754955851062,0.01599268966864543,-44.78870829397826,174.2331053391175
1979.797520336091,0.01664977020369701,-44.64183389208682,174.1479023603488
1996.98806508904,0.01689543115970391,-44.49936878843413,174.122471306715
2014.327875019799,0.01716692930850803,-44.34775811428705,174.1310080403886
2031.818246195113,0.01693008173218729,-44.20866394476601,173.9444485464167
2049.460485935438,0.01675145798084257,-44.06059688677818,173.8300230359497
2067.255912912686,0.01650959588641552,-43.88436747917748,173.798202886409
2085.205857248756,0.01703037424227289,-43.73655890405455,173.6875666861666
2103.31166061498,0.01650600006008612,-43.61253968425694,173.837310342771
2121.574676332399,0.01678056616190217,-43.45238545181676,173.8956048469081
2139.996269472903,0.01637020056227648,-43.33341147964993,173.6922660487872
2158.577816961293,0.0166298304355021,-43.10006865736823,173.8596851590426
2177.320707678165,0.01550850567693024,-42.98211466159236,173.6397860400533
2196.226342563751,0.01614488752216596,-42.90769218362406,173.567531596534
2215.296134722619,0.0166872216054389,-42.70337451736452,173.3687534114638
2234.531509529288,0.01613970437803953,-42.55775151639368,173.4230501754609
2253.933904734793,0.01638503718090603,-42.43262717318451,173.2448099249706
2273.504770574121,0.01574046635481913,-42.2599241142622,173.2777344355074
2293.245569874628,0.01605913498936056,-42.1291341905473,173.1222447817898
2313.157778165372,0.01648714909394653,-41.94669043289305,172.8222165119164
2333.242883787401,0.01636724507907813,-41.79895629164271,173.1557662569673
2353.502388005005,0.01589376181461186,-41.7219724175741,173.0283733116655
2373.937805117914,0.016143431070347,-41.47401302812881,172.8734989853968
2394.550662574503,0.01581301494131978,-41.37105506324235,172.7791995381215
2415.342501085949,0.01482448670895665,-41.1945683982043,172.7128241584358
2436.314874741396,0.01594567236156311,-41.0526742569965,172.9210538221549
2457.469351124118,0.01538719547270067,-40.95476290274271,172.724464984309
2478.807511428676,0.01520746667940386,-40.72137187536648,172.424589524075
2500.330950579123,0.01644854481771499,-40.60489436154737,172.5229504548865
2522.041277348204,0.0152727729885228,-40.44209985707945,172.5152196587247
2543.940114477607,0.01577891393670941,-40.30811282400821,172.685103447305
2566.029098799259,0.01528117595418818,-40.13653569478216,172.3459061731588
2588.309881357666,0.01579478397727899,-40.01393494181077,172.5218369315871
2610.784127533315,0.01489137748010919,-39.84519025703198,172.3938318985476
2633.453517167177,0.01668354072640384,-39.70340719628374,172.358113709788
2656.319744686235,0.01421286042953279,-39.5410674462111,172.19803260611
2679.384519230158,0.01467378780875457,-39.39378430911833,171.9527440771084
2702.649564779043,0.01568363474650705,-39.24666305364198,171.9632228268808
2726.116620282263,0.01498900663173048,-39.08835205886351,172.1250098734582
2749.787439788477,0.01522813122843501,-38.96471194282024,171.881760365862
2773.663792576692,0.01487896245186021,-38.77473949933792,171.7984435246957
2797.747463288548,0.01499885739962785,-38.62525949592238,171.8102155429295
2822.04025206169,0.01508961498066182,-38.4855837892819,171.7212556642515
2846.543974664316,0.01483231772745356,-38.33268125482483,171.7727366337936
2871.260462630924,0.01558877419390465,-38.18967398843873,171.4931129057307
2896.191563399173,0.01536530529966113,-38.0455501212153,171.4339919134294
2921.339140447999,0.01400925532723683,-37.88431941585751,171.2761395294049
2946.705073436886,0.01445072873628952,-37.74305514905994,171.2011028346748
2972.29125834637,0.01429734736305091,-37.60311337680119,171.2983254091783
2998.099607619751,0.01414377960693772,-37.41561538002569,171.1723265753907
3024.132050306029,0.0138106318950444,-37.29107730910967,171.3334322832924
3050.39053220411,0.01435918608107495,-37.12950296363352,170.923966980176
3076.877016008233,0.01461550797184833,-36.99333924068569,171.0022521825484
3103.593481454674,0.01404551796348111,-36.82825909084705,170.8698653319686
3130.541925469724,0.01492795790059158,-36.65237033130594,170.8892293222814
3157.724362318939,0.01322499046165807,-36.52176888642718,170.7785833410439
3185.142823757715,0.01432958181631762,-36.36650168664397,170.5566794334664
3212.799359183138,0.0141547303530515,-36.23640895099373,170.5596123054362
3240.69603578717,0.01485941679549243,-36.07481480915925,170.4292430610594
3268.834938711164,0.01453361565556978,-35.92728127666386,170.450285662151
3297.218171201719,0.01437531640506914,-35.76564243992709,170.431374258265
3325.847854767869,0.01380503130701476,-35.6173744935991,170.2096890610579
3354.726129339698,0.01345784566862201,-35.45215585707501,170.1230021721666
3383.855153428236,0.01378492932038809,-35.31203703524599,169.9980820362168
3413.237104286842,0.01386919837728684,-35.16541159295718,170.0482346142424
3442.87417807392,0.01357226693637993,-35.00776837186785,169.8918281302084
3472.768590017064,0.01404944757725137,-34.86122189035748,169.9230682011959
3502.922574578674,0.01239614723291326,-34.70687527823848,169.666266963744
3533.338385622919,0.01230083412132655,-34.55246960881817,169.679876446038
3564.018296584244,0.01332859765119116,-34.40587183207376,169.6164908392996
3594.964600637279,0.01345450392434322,-34.26184539604947,169.5317876004505
3626.179610868235,0.01170946757267604,-34.10520389051244,169.3422996440629
3657.665660447833,0.01261555582936263,-33.94972434160533,169.2610746249645
3689.425102805644,0.0128881244939402,-33.8065694998386,169.2593287606061
3721.460311806039,0.01343198030978125,-33.64768496192093,168.9928324641621
3753.773681925607,0.01237249748785894,-33.48267905728867,168.9667272357385
3786.36762843213,0.01320587603348448,-33.35845355538319,168.8509911512647
3819.244587565121,0.012287900824998,-33.20118893682569,168.8859716511348
3852.407016717901,0.01366137614382031,-33.04335436083527,168.6367323937849
3885.857394621303,0.01140049697465425,-32.88216311431246,168.630869767285
3919.598221528932,0.0122248873502329,-32.72936764104972,168.4235849770892
3953.632019404046,0.01273743081512092,-32.59126372442439,168.4372279950827
3987.961332108067,0.01226262533327045,-32.41831809192541,168.386439751497
4022.588725590706,0.01258328869701442,-32.2779852141762,168.1721117108312
4057.516788081781,0.0113341943727918,-32.12004644254652,168.1033482259151
4092.748130284653,0.01221234342994119,-31.98003757781855,167.955122210344
4128.285385571376,0.01166809134043896,-31.81744108160531,167.9286310222973
4164.131210179521,0.01142871681616011,-31.66121597738121,167.8462247285486
4200.288283410725,0.01192290771418744,-31.51311995854432,167.742079618835
4236.759307830935,0.01075554434011842,-31.35638745916139,167.5727553440029
4273.547009472456,0.01186755121212667,-31.2154599954722,167.4569268413421
4310.65413803765,0.01208072235335667,-31.05177976825443,167.3356366072705
4348.083467104513,0.01132587329005794,-30.89442410723028,167.2476604481222
4385.837794333964,0.01177834217354851,-30.74804410459352,167.1353601781234
4423.919941678942,0.01088036831552945,-30.58277232874179,166.9583226282327
4462.332755595384,0.01133278594559368,-30.43276457699761,166.8529440955004
4501.079107254915,0.01139675250911366,-30.28485620819746,166.8361186334596
4540.161892759511,0.008370683637223294,-30.12356147996125,166.6613690591599
4579.584033357946,0.01149939183231751,-29.96620864785031,166.5350582487882
4619.348475664124,0.01095268115560508,-29.81992001863819,166.3801295123077
4659.458191877374,0.01085477336884438,-29.66440124928526,166.3299374583967
4699.916180004545,0.01096693987590294,-29.51111881605321,166.2223743209598
4740.725464084141,0.009646419454258393,-29.36902960514676,166.0091817092398
4781.88909441233,0.01103620415969496,-29.20676408103601,165.9292344235565
4823.410147770946,0.01142420452304363,-29.05835792814625,165.7863948586953
4865.291727657467,0.00930819295478944,-28.89513632305864,165.6289647796673
4907.536964516966,0.01044326859962272,-28.74541768724342,165.4585431298767
4950.149015976125,0.01118100730507807,-28.58125934568864,165.432539934579
4993.131067079237,0.007691860575029136,-28.4371818969968,165.3046609707846
5036.486330526274,0.009374728521830153,-28.27214912913603,165.1557684648954
5080.218046913028,0.01110365813135481,-28.11916343641744,165.0101121504493
5124.329484973304,0.007050878761498294,-27.97108816981051,164.8374886412321
5168.823941823282,0.01113204839069999,-27.81620185971012,164.7050911877262
5213.704743207931,0.01060302780450663,-27.65828117022771,164.5873341267171
5258.975243749603,0.006907391188844571,-27.50765210441017,164.4358741581887
5304.638827198777,0.009601593819910057,-27.35180124763824,164.3231190858539
5350.69890668696,0.01000916143249957,-27.19866610817117,164.1496840885028
5397.158924981825,0.007180834143958574,-27.0379428296605,163.9834260326082
5444.022354744549,0.009769321151849992,-26.88727178625204,163.8508537175348
5491.292698789329,0.01054975587585009,-26.73347356655991,163.7685796919689
5538.973490345252,0.008639885117954318,-26.57183861707604,163.5700296857869
5587.068293320367,0.009173655034597829,-26.41339704421529,163.4159868646778
5635.580702568049,0.01002584929168642,-26.26370884157182,163.2406016560125
5684.514344155757,0.008877617751579709,-26.10440651773621,163.0832155176625
5733.872875635986,0.0008968353946450973,-25.94667438854625,162.9198310713092
5783.659986319711,0.009533807210460389,-25.80810283148514,162.7671646678393
5833.879397552121,0.01005935875584676,-25.638744507628,162.6282892778538
5884.534862990779,0.005298973553967056,-25.49483333233574,162.4842127242158
5935.630168886185,0.008884814741321575,-25.32614382510765,162.3208885430907
5987.16913436477,0.01014236817150918,-25.17127705457227,162.1265452013027
6039.155611714382,0.008192107131617546,-25.01358843999815,161.9426661929121
6091.593486672206,-0.001954434676095351,-24.86598869724325,161.8405834072558
6144.486678715213,0.009016860446774829,-24.70857897257051,161.6733036970949
6197.839141353125,0.009201276928102773,-24.55745557858251,161.4718981226635
6251.654862423894,0.005067033967887289,-24.39760783811963,161.280435247445
6305.937864391813,0.00983126012421108,-24.23564309444242,161.0554981598918
6360.692204648153,0.009912455161514407,-24.08234496445476,160.9399766398351
6415.921975814435,0.008584088117699453,-23.93055130320311,160.7295411281081
6471.631306048344,0.001833963928224563,-23.76692298546691,160.5381414350734
6527.824359352252,0.009678445329423243,-23.61396075692559,160.3624126656154
6584.50533588453,0.009622531388944582,-23.45682365571749,160.1665257171501
6641.678472273421,0.00837137043404299,-23.29566200316901,159.9754463589136
6699.34804193372,-0.002179336322168957,-23.14280540827486,159.8330785067596
6757.518355386231,0.008549122512793571,-22.98568842571406,159.6108417628911
6816.19376057989,0.00927498752650543,-22.83236577641956,159.4194244032648
6875.378643216841,0.007302599305207876,-22.67433750102339,159.2016668264011
6935.077427080169,-0.002396836659776451,-22.51414196072065,158.9795378136213
6995.294574364578,0.008497628811737157,-22.35743060549123,158.7999111944458
7056.034586009945,0.00868072088289798,-22.19819634727676,158.6057143345703
7117.302002037697,0.007543143257617751,-22.04298536056096,158.3797680404558
7179.101401890218,-0.002388942241652427,-21.88408197518203,158.1890066130883
7241.437404773083,0.008258586240361717,-21.72638863706183,157.9471148267965
7304.314670000334,0.008393339491871129,-21.56719664651547,157.7310321048786
7367.737897342767,0.008188017093421445,-21.40677362698854,157.5249911647017
7431.71182737919,0.001485140804067948,-21.2525867612418,157.3295223131897
7496.241241850772,0.003014055054072818,-21.09011921889712,157.0780074190357
7561.330964018458,0.008583800912173301,-20.93994854275111,156.8973426714225
7626.985859023452,0.008500564584838095,-20.77611554123049,156.6475806305922
7693.210834250913,0.004723096928359649,-20.61274217316171,156.38942501397
7760.010839696725,-0.002864185662419192,-20.45809293025314,156.1169498176547
7827.390868337496,0.008695144736581091,-20.29735948307469,155.9219726685775
7895.355956503759,0.008838266221855988,-20.14148015488806,155.6807426827567
7963.911184256391,0.007963121646934078,-19.98155538946049,155.4202696985767
8033.061675766364,-0.00126743052695201,-19.82217168379615,155.1618602061659
8102.812599697723,0.00259919404211223,-19.66351571011352,154.913607249032
8173.169169593927,0.00835170101860204,-19.50403418103764,154.6586238855393
8244.136644267543,0.008995293601321454,-19.34418575760445,154.4336347230467
8315.720328193274,0.006945849202509877,-19.18579992730282,154.1567139012296
8387.925571904532,-0.005567092052854842,-19.02191697184465,153.8801774523519
8460.757772393279,0.005459377659711568,-18.86654803740307,153.5964464261118
8534.222373513443,0.008782920158280938,-18.69941833068487,153.3420560613978
8608.324866387869,0.008813411619698987,-18.54234964401871,153.0739324959727
8683.070789818677,0.006205481685561579,-18.3820618844932,152.8003203168782
8758.465730701348,-0.007451285170435782,-18.21982805362169,152.5141160248059
8834.515324442249,0.006016424312585516,-18.06238586960634,152.2031381388098
8911.225255379859,0.008210506407758661,-17.89858831451377,151.9641230116792
8988.601257209695,0.008768779093908071,-17.74281287530227,151.6461857015335
9066.649113412799,0.007017484634268822,-17.58036213095622,151.3398902582705
9145.374657688128,-0.005211887607861832,-17.41697088877522,151.047986530478
9224.783774388505,0.005104932725521244,-17.25936692714944,150.7380399243888
9304.882398960464,0.007950428663460149,-17.09537289981021,150.4275953241319
9385.67651838794,0.008043381658864559,-16.93263646288829,150.0933334253217
