#Digilent WaveForms Network Analyzer - Bode
#Device Name: Discovery2
#Serial Number: SN:210321A35FCC
#Date Time: 2019-11-27 17:48:52.487
#Start: 1000 Hz
#Stop: 1e+06 Hz
#Steps: 800
#Wavegen: Wavegen1
#Amplification: 1 X
#Settle: 10 ms
#MinPeriods: 16 
#Channel: Channel 1
#Range: 5.42537 V
#Offset: 0.000183761 V
#Relative: no
#Channel: Channel 2
#Range: 5.47028 V
#Offset: -7.92091e-07 V
#Relative: yes

Frequency (Hz),Channel 1 Magnitude (dB),Channel 2 Magnitude (dB),Channel 2 Phase (*)
1000.000000000001,0.01610283559431859,-35.79115751533887,0.5642613084005994
1008.682981252564,0.02410678292709541,-35.64154798524359,0.145645800353388
1017.441356668559,0.01756079735857045,-35.35865949985904,-1.974559096923397
1026.275780894095,0.01686509015329926,-35.47512449052306,0.05641482991422464
1035.186914259556,0.01311591287681345,-35.37435379601637,-2.055356098870952
1044.175422828971,0.0181193678976072,-35.3388118980651,-2.879492110866593
1053.241978449782,0.03899326734494176,-34.64632321434912,-1.345447423482661
1062.387258803074,0.03154989927998759,-34.15759864096339,-2.441450404995319
1071.611947454223,0.01365059360063631,-34.84393008804313,-1.613761945148525
1080.91673390399,0.02983457487862263,-34.51216637103906,-2.145159207342545
1090.30231364006,0.01560542192537642,-34.06620911420202,-0.5346788547631007
1099.769388189022,0.02417080747991966,-34.09872195937017,0.4801424803195289
1109.31866516881,0.03279438335219764,-33.69110293105659,-1.011051650311487
1118.950858341589,0.02664712674788247,-34.093539418383,-0.1815552614728233
1128.666687667108,0.01650195404735911,-33.78706712818941,-0.6974309262417933
1138.466879356514,0.02498060697391232,-33.46862831282768,-0.2293585868405046
1148.352165926631,0.02562618481036976,-33.42249227137824,1.067159505637292
1158.323286254712,0.01409734939486251,-33.40836198287374,-0.9868097535080835
1168.380985633668,0.02242745687248273,-33.14067591261735,-0.489282303878241
1178.526015827776,0.0188164622638826,-32.98213052865189,-0.3184038940188145
1188.759135128866,0.01486694758167812,-32.8694058814342,-1.987081640521964
1199.081108413004,0.02299357421817,-32.82939631009497,-4.219525291776563
1209.492707197656,0.02873356919347342,-32.64756451674224,-1.907022236033725
1219.994709699364,0.03393738665334901,-32.37904876335939,-1.512264239144834
1230.58790089191,0.02474174122383538,-32.06136077296447,-0.7567566007751978
1241.273072564985,0.006796883180283798,-32.2236217416968,-1.224535203704264
1252.051023383379,0.02912435347444627,-31.89278164344503,-0.7218453424485176
1262.922558946667,0.02897845014261818,-31.82045834916801,-1.96774546350656
1273.888491849441,0.02510572281016396,-31.62574079910323,-0.7174960113140401
1284.949641742025,0.02561078162970072,-31.73792355116542,-0.07295504358290827
1296.106835391758,0.01860528019063665,-31.44697730340159,-1.200673318892711
1307.360906744785,0.008683059255813988,-31.39758206744205,0.572386833210011
1318.712696988382,0.03294961616683871,-31.08042668549587,-1.100649384813963
1330.163054613849,0.02759807767757208,-30.93542835238481,-1.701497070338523
1341.712835479913,0.01764787954955944,-31.00834816281123,0.4375374180354328
1353.362902876708,0.0228471679290183,-30.95614017126774,-2.044196104509638
1365.114127590301,0.01469920852010971,-30.57355825827393,0.2804378318274772
1376.967387967775,0.01659140603806825,-30.71505698914399,-0.7277269164685691
1388.923569982891,0.02746205425697112,-30.10537189773802,-0.03554341889517332
1400.983567302295,0.02574216863580474,-30.16563261196109,-1.078847466641079
1413.148281352329,0.02329291073361063,-30.20842419468034,-3.060768339143394
1425.418621386403,0.01879592267765024,-29.89887783025252,-1.895184357939343
1437.795504552955,0.01534550159759564,-29.50317880199417,-0.4557308507687949
1450.279855964008,0.01548313417389392,-29.82687746151925,-0.6819151225169549
1462.872608764313,0.0142162179384402,-29.24713004359667,-1.896614040938132
1475.574704201101,0.01989047822046725,-29.18537612319879,-1.398666867891222
1488.387091694435,0.0165707480164446,-29.21352385847893,-1.067663148744671
1501.310728908174,0.01640440469918615,-28.90424484039198,-0.9465674801889108
1514.346581821555,0.02062339138263485,-28.86981016071161,-0.7223299904299978
1527.495624801396,0.03057143920820928,-28.70691195480252,-0.9732258086437042
1540.758840674918,0.01011121711786987,-28.58399064767015,-0.2043411502417882
1554.137220803218,0.01643669290512203,-28.37165799345603,-1.224363294856317
1567.631765155362,0.02504891933549022,-28.06497837649016,-1.404091004497133
1581.243482383128,0.01145865388785916,-28.07181299781565,-0.5797895422862211
1594.9733898964,0.01281343544987671,-27.85420037056129,-0.9941205870046446
1608.822513939205,0.01502270026538154,-27.74006664762826,-0.7032524014493333
1622.791889666442,0.03339343718727503,-27.5799353480108,-1.783940728111318
1636.882561221226,0.01922429107701343,-27.37287546173801,-0.07767755146091027
1651.095581812957,0.02078405517171748,-27.41000186205136,-0.6459631037203337
1665.432013796029,0.005199133302961689,-27.38735719630356,-0.6597972086241697
1679.892928749236,0.0312417816675238,-26.93512095188007,-1.037327179498305
1694.47940755588,0.00460967436989487,-26.8216924664399,-1.496789926950584
1709.192540484542,0.02997174917463515,-26.70841080588257,-1.920337385172852
1724.033427270589,0.02158153486953016,-26.69908042381358,-1.197264815623271
1739.003177198373,0.02001923334577695,-26.53782434404519,-0.9833526638514627
1754.102909184131,0.01442331019199033,-26.27949758010956,-0.8787614849746035
1769.333751859645,0.01826540092103097,-26.01845655280469,-1.277229633264049
1784.696843656568,0.02333616513387418,-25.97246416201112,-1.44980655189851
1800.193332891546,0.02508357554485487,-25.88036505845417,-0.6149021608202219
1815.824377852032,0.01766127082716573,-25.60196852236962,-1.095259134875839
1831.591146882867,0.02595529536138637,-25.43619269376031,-1.612483525888564
1847.494818473613,0.01667987449146186,-25.38997711645798,-1.547561154798814
1863.536581346626,0.02072255004535674,-25.29052248639555,-1.119505944039588
1879.717634545924,0.0112722634045379,-24.95253516804901,-0.9890727354193984
1896.039187526798,0.01008610972924202,-24.85610959700157,-0.8401204874847963
1912.502460246217,0.008382612281363434,-24.80647288366098,-1.484722734337396
1929.108683254017,0.004477308943941659,-24.65261322445112,-0.8019783013118484
1945.859097784868,0.03615356089470429,-24.48960645633716,-0.7195960438113076
1962.754955851062,0.01667487320092318,-24.32337784952179,-1.789444083199946
1979.797520336091,0.01949910545487511,-24.18115819407786,-0.9392524779206539
1996.98806508904,0.02388153627141273,-24.1650700083318,-1.242096962085391
2014.327875019799,0.02528128357804372,-23.91469540054963,-1.636066399560605
2031.818246195113,0.0245854207368981,-23.76066545624862,-1.350328000988412
2049.460485935438,0.01679312781383695,-23.51822069922788,-0.9961187740328299
2067.255912912686,0.03329439242317443,-23.49296110777239,-1.122580998236273
2085.205857248756,0.0266945302690065,-23.23444672044143,-1.472317186489875
2103.31166061498,0.02861745153841251,-23.08779622731303,-1.197017005527485
2121.574676332399,0.02777098501916466,-22.98472007808191,-1.246994285572459
2139.996269472903,0.02383368558680462,-22.91238371120734,-0.7144307556811178
2158.577816961293,0.01971213921497825,-22.74110682268118,-1.447043956336415
2177.320707678165,0.00658613832562749,-22.63401969901951,-0.9832007875736863
2196.226342563751,0.01810706866249167,-22.35707413683646,-1.505559826819649
2215.296134722619,0.02987986193044558,-22.2461181793404,-1.730819655131484
2234.531509529288,0.006549892041339152,-22.0484583216364,-1.982863336984707
2253.933904734793,0.007402193260570933,-21.88725367877979,-1.531836471574678
2273.504770574121,0.01008730904548409,-21.80779829450813,-1.631996302723707
2293.245569874628,0.02036938159594864,-21.66151480223893,-1.364001063539504
2313.157778165372,0.02512204330582612,-21.4549805370502,-1.249243721119882
2333.242883787401,0.02059511489009585,-21.19420433165269,-1.34024286567346
2353.502388005005,0.002424226556691175,-21.06324623611764,-1.54374362277408
2373.937805117914,0.0410421961839559,-20.95963399117756,-1.396564813741847
2394.550662574503,0.02087001093070603,-20.85368083231559,-1.337609273266295
2415.342501085949,0.02870680838709234,-20.71528493953598,-1.341111027571557
2436.314874741396,0.01730169079133503,-20.60339837690257,-1.717700398494941
2457.469351124118,0.00367208678217171,-20.34531263730855,-1.19366111379432
2478.807511428676,0.02980939416965559,-20.20237537942353,-1.462816838642453
2500.330950579123,0.02273417566844374,-20.14218500877482,-1.314425359445011
2522.041277348204,0.02255465474252042,-19.8633375914333,-1.315536187072638
2543.940114477607,0.02455794518659579,-19.77873928019126,-1.985807459072532
2566.029098799259,0.01742285594401264,-19.59705947445855,-1.430553483661896
2588.309881357666,0.01028862726594875,-19.42308961650624,-1.497942325774307
2610.784127533315,0.01975041238462074,-19.22947576517428,-1.266013805601604
2633.453517167177,0.02651199893244051,-19.14305558428665,-1.703002301815019
2656.319744686235,0.01824079046375979,-19.04746078164574,-1.516265073338676
2679.384519230158,0.0207767213036324,-18.77765985824698,-1.56315731130745
2702.649564779043,0.01713818851236089,-18.64352772871739,-1.598139247460125
2726.116620282263,0.009148410770798966,-18.5284494422615,-1.223772905110629
2749.787439788477,-0.009641135420847666,-18.4082334843254,-1.625478093943244
2773.663792576692,0.01128049341937772,-18.21075234699094,-1.825004445288272
2797.747463288548,0.004906514838952017,-18.01597673203145,-1.675787187433812
2822.04025206169,0.01510798791144625,-17.87499352836127,-1.57907776350919
2846.543974664316,0.026169099685917,-17.70368910965442,-1.596999017752039
2871.260462630924,0.01578755933043253,-17.62874602952074,-1.638201009790862
2896.191563399173,0.0240440880839166,-17.43337501766408,-1.633509094446751
2921.339140447999,0.02575706742447027,-17.24880213347641,-1.947553751621001
2946.705073436886,0.01275270943097975,-17.17773635689201,-1.923262482229177
2972.29125834637,0.01069566624328856,-16.97129590283175,-1.871095844324799
2998.099607619751,0.0128421273097698,-16.79534818824806,-1.79568783620855
3024.132050306029,0.006143602562813437,-16.65123337979932,-2.013810094690481
3050.39053220411,0.02876327276065953,-16.4915136824854,-1.952728788478609
3076.877016008233,0.01728689261781453,-16.32911305866288,-1.799627711930157
3103.593481454674,0.03279606483218526,-16.17240007155197,-1.99527224910679
3130.541925469724,0.01942419846345345,-16.03120857677766,-1.664296993590071
3157.724362318939,0.006105107276517248,-15.8153514031978,-1.756313493166118
3185.142823757715,0.007062899353074387,-15.69727148221863,-1.875047501956814
3212.799359183138,0.01958368408865961,-15.51315733685927,-1.769539662598319
3240.69603578717,0.009966446119027434,-15.3808493145466,-1.736773308884153
3268.834938711164,0.02690644105885592,-15.24886246510575,-1.960505975189477
3297.218171201719,0.005655222972212152,-15.04685471069833,-1.965243033002267
3325.847854767869,0.0086460197139015,-14.91590570652605,-1.791880869174848
3354.726129339698,0.01707384819837308,-14.71746841463069,-1.678102795888726
3383.855153428236,0.02588760324450784,-14.55116883523452,-1.960900822845409
3413.237104286842,0.00252520327171165,-14.42293999382473,-1.987798637902074
3442.87417807392,0.008746253903642767,-14.2385718615044,-1.97574208741807
3472.768590017064,0.01179136850533344,-14.08770142606181,-2.027925388320369
3502.922574578674,0.0192542733386355,-13.94443763858276,-1.967395954642269
3533.338385622919,0.01322307271265105,-13.7793410695838,-2.150248897768782
3564.018296584244,0.01513933076598259,-13.5788286281151,-2.100041309838723
3594.964600637279,0.02656325652410887,-13.45337796763436,-2.232521810007228
3626.179610868235,0.02680285893025356,-13.30024155679616,-2.128255145155009
3657.665660447833,0.002643844087680959,-13.11271999964409,-2.154408570933313
3689.425102805644,0.0124391663622042,-12.99027651006807,-2.106422958184581
3721.460311806039,-0.002681834687465383,-12.83435599681103,-2.14811642139523
3753.773681925607,0.01494161535048432,-12.63948812895722,-2.262563399742533
3786.36762843213,0.02269341700888646,-12.50123929900446,-2.070943787951492
3819.244587565121,0.02073510985334323,-12.3115938953103,-2.264329083016264
3852.407016717901,0.002616991586497453,-12.13616511925507,-2.211798066857114
3885.857394621303,0.02561168255836992,-11.99022578080814,-2.199966703365291
3919.598221528932,0.01248718544978808,-11.82444707627525,-2.259567518115333
3953.632019404046,0.01927713340131218,-11.65162481267113,-2.250054803335118
3987.961332108067,0.01025314769688596,-11.50067809418598,-2.29857005965394
4022.588725590706,0.01923437082985287,-11.32784553186408,-2.455753825670925
4057.516788081781,0.01007847039911114,-11.17849586630994,-2.277015301151259
4092.748130284653,0.006227978327928558,-11.02411071945929,-2.450858992959013
4128.285385571376,0.02239357289045317,-10.84689008260107,-2.243334585218676
4164.131210179521,0.01510427539808675,-10.69226849933579,-2.495836507117573
4200.288283410725,0.008891563601538061,-10.53209102161852,-2.39543379206151
4236.759307830935,0.006558956646328444,-10.36316639045486,-2.259110626617996
4273.547009472456,0.03384761723174187,-10.19190029610197,-2.410430057292572
4310.65413803765,0.0129102145614362,-10.04245755139444,-2.438206826498202
4348.083467104513,0.02067423429864368,-9.863084360425123,-2.484117127996939
4385.837794333964,0.02276628831109032,-9.686977511875568,-2.584354581448004
4423.919941678942,0.003556857086677558,-9.511769000427337,-2.458929518994637
4462.332755595384,0.01587278433092744,-9.385427287644214,-2.551848738871627
4501.079107254915,0.01045446315372347,-9.205908289411164,-2.484943102978065
4540.161892759511,0.001379438682296219,-9.016732257956257,-2.553004060104996
4579.584033357946,0.01961271881402163,-8.862117002404739,-2.657703738333907
4619.348475664124,0.02465723738388997,-8.696943656516126,-2.603499838321397
4659.458191877374,0.02266725904859143,-8.52664906607648,-2.774007690201614
4699.916180004545,0.01766798357485254,-8.356504726949336,-2.666562378905542
4740.725464084141,0.01338542872294919,-8.192850103762826,-2.748828518573902
4781.88909441233,0.0149585207587385,-8.00355572769954,-2.738689056361821
4823.410147770946,0.02089233256357662,-7.846213137043694,-2.800698986686029
4865.291727657467,0.0201614381469301,-7.65262324995931,-2.836287249716399
4907.536964516966,0.009834524632255258,-7.500909325053788,-2.801281433265316
4950.149015976125,0.01492594861081177,-7.323756329914415,-2.934186548726238
4993.131067079237,0.005146607405116157,-7.142004698723644,-2.980469758379412
5036.486330526274,0.005633732007422896,-6.975707360819685,-2.985081500940552
5080.218046913028,0.01829159694995737,-6.819571458243974,-2.902886150067161
5124.329484973304,0.000262156369188169,-6.638262045235886,-2.979588130383192
5168.823941823282,0.0229944308133617,-6.458057791065276,-3.054995935029211
5213.704743207931,0.02045143792255906,-6.28500710886515,-3.093022300485757
5258.975243749603,-0.0112752897063543,-6.105005144835762,-2.909488983711547
5304.638827198777,0.01725180777629252,-5.923812322700574,-2.995383843210874
5350.69890668696,0.02323260226473849,-5.75176650323756,-3.101290535046786
5397.158924981825,0.0139434702061709,-5.581713492624633,-3.130107905214828
5444.022354744549,0.01737849150644968,-5.39389017218001,-3.24498255050608
5491.292698789329,0.01602034606222897,-5.223437003291526,-3.247387760704989
5538.973490345252,0.00599742501338511,-5.046752260675364,-3.212045724503696
5587.068293320367,0.007928782376955351,-4.86522452068333,-3.217564089620811
5635.580702568049,0.01644500942170275,-4.675038722440518,-3.327908276613478
5684.514344155757,0.01783542696789321,-4.485178741571384,-3.333442384674086
5733.872875635986,0.003887117040308652,-4.317275488620187,-3.401296522500232
5783.659986319711,0.01493851611887619,-4.125590338720077,-3.52670240118855
5833.879397552121,0.006175377149152648,-3.950454891543807,-3.488829679778068
5884.534862990779,0.01663538623287943,-3.769112960396048,-3.461740273270003
5935.630168886185,0.01316807139704986,-3.567463652746016,-3.526970750632021
5987.16913436477,0.01607063191377877,-3.378030290289036,-3.614081352921602
6039.155611714382,0.0101422057600287,-3.194270667348238,-3.515761489713604
6091.593486672206,0.01205549797353203,-3.009185405000326,-3.637586528566715
6144.486678715213,0.008682101902232613,-2.827448084490462,-3.719051958712072
6197.839141353125,0.008938229807533222,-2.631790760236554,-3.753061639094629
6251.654862423894,0.006641069574850026,-2.428881071236837,-3.679414265725967
6305.937864391813,0.0002854310989632427,-2.250697609865059,-3.885936081740809
6360.692204648153,0.02295980558127557,-2.062278603833676,-3.908300439140715
6415.921975814435,0.01794517563372648,-1.869263861354056,-3.973960779471799
6471.631306048344,-0.002186989743427483,-1.661890615674628,-3.951496055540119
6527.824359352252,0.0143034409274949,-1.472845805555225,-4.035452985551004
6584.50533588453,0.02478698405552954,-1.294684793923958,-4.130209455388552
6641.678472273421,0.006679680414306529,-1.072955211598669,-4.071416796640715
6699.34804193372,0.006285083902580961,-0.8861240332275282,-4.088486734867239
6757.518355386231,0.01475834071255339,-0.6832793284552247,-4.19169274956468
6816.19376057989,0.03260387276606441,-0.4916792421213595,-4.331615728199971
6875.378643216841,0.01332583729523359,-0.2880293217766111,-4.332940117734566
6935.077427080169,-0.001350347394391368,-0.07516961446171676,-4.31150466928321
6995.294574364578,0.01788537679037666,0.1244379306654689,-4.386411094479186
7056.034586009945,0.01242575425809454,0.3328401891916339,-4.454250179129243
7117.302002037697,0.009207778915961471,0.5446969411416571,-4.518188104896836
7179.101401890218,0.001266729367762442,0.7580008538564007,-4.61139840069777
7241.437404773083,0.003816640735518996,0.9633087682942181,-4.678343711406782
7304.314670000334,-0.003285016398323553,1.177603462991522,-4.710479896260459
7367.737897342767,0.007996470458723896,1.383441369443891,-4.733536570052777
7431.71182737919,0.0181504698571869,1.594105192877308,-4.81622737484426
7496.241241850772,0.006722909783480837,1.803995321975137,-4.931496119264352
7561.330964018458,0.01815991697183629,2.038730216276212,-4.973873906763934
7626.985859023452,0.006033955720240569,2.249655283158289,-5.015771375246388
7693.210834250913,0.02200031709706123,2.46010591390311,-5.04235120695526
7760.010839696725,-0.008707008872644469,2.692843920758792,-5.181814903149956
7827.390868337496,0.01582490038786931,2.921744544260616,-5.272294954172224
7895.355956503759,0.001204034635006354,3.141701296777883,-5.352683918836988
7963.911184256391,0.009314925855276898,3.367046087028261,-5.391273600848336
8033.061675766364,-0.002038323250780457,3.608900044808621,-5.475412397286178
8102.812599697723,0.02248441790981191,3.834715654254464,-5.620123681436894
8173.169169593927,0.003243936903631531,4.072726802776975,-5.65252078761587
8244.136644267543,0.02930721115421288,4.301310133366511,-5.748539109130739
8315.720328193274,0.01138616192767238,4.548430942494007,-5.871271114631756
8387.925571904532,0.003356137228564556,4.797010954443345,-5.947372268107242
8460.757772393279,0.009200394418165808,5.039131131793273,-6.058149632507067
8534.222373513443,0.01770981889876055,5.282457060913154,-6.131450118186493
8608.324866387869,0.02063600207451811,5.531029835427797,-6.266389136823729
8683.070789818677,0.009358064671820774,5.789623769050349,-6.352874146004993
8758.465730701348,-0.01210875426169622,6.048840578312459,-6.405025175205651
8834.515324442249,0.02629143510296943,6.304976555324631,-6.637274851279827
8911.225255379859,0.01545554896462269,6.565722839410023,-6.757170633136852
8988.601257209695,0.003885750971537035,6.843789270277502,-6.875808370342014
9066.649113412799,0.01704305168790277,7.106447719103009,-6.956161583888786
